# vsim -c top 
# Start time: 16:57:01 on Sep 22,2025
# ** Note: (vsim-3813) Design is being optimized due to module recompilation...
# //  Questa Sim
# //  Version 10.6c linux Jul 25 2017
# //
# //  Copyright 1991-2017 Mentor Graphics Corporation
# //  All Rights Reserved.
# //
# //  QuestaSim and its associated documentation contain trade
# //  secrets and commercial or financial information that are the property of
# //  Mentor Graphics Corporation and are privileged, confidential,
# //  and exempt from disclosure under the Freedom of Information Act,
# //  5 U.S.C. Section 552. Furthermore, this information
# //  is prohibited from disclosure under the Trade Secrets Act,
# //  18 U.S.C. Section 1905.
# //
# Loading sv_std.std
# Loading work.apb_if(fast)
# Loading mtiUvm.uvm_pkg
# Loading work.apb_package(fast)
# Loading work.top(fast)
# Loading mtiUvm.questa_uvm_pkg(fast)
# Loading /tools/mentor/questasim_10.6c/questasim/uvm-1.1d/linux/uvm_dpi.so
# ----------------------------------------------------------------
# UVM-1.1d
# (C) 2007-2013 Mentor Graphics Corporation
# (C) 2007-2013 Cadence Design Systems, Inc.
# (C) 2006-2013 Synopsys, Inc.
# (C) 2011-2013 Cypress Semiconductor Corp.
# ----------------------------------------------------------------
# 
#   ***********       IMPORTANT RELEASE NOTES         ************
# 
#   You are using a version of the UVM library that has been compiled
#   with `UVM_NO_DEPRECATED undefined.
#   See http://www.eda.org/svdb/view.php?id=3313 for more details.
# 
#   You are using a version of the UVM library that has been compiled
#   with `UVM_OBJECT_MUST_HAVE_CONSTRUCTOR undefined.
#   See http://www.eda.org/svdb/view.php?id=3770 for more details.
# 
#       (Specify +UVM_NO_RELNOTES to turn off this notice)
# 
# UVM_INFO verilog_src/questa_uvm_pkg-1.2/src/questa_uvm_pkg.sv(215) @ 0: reporter [Questa UVM] QUESTA_UVM-1.2.3
# UVM_INFO verilog_src/questa_uvm_pkg-1.2/src/questa_uvm_pkg.sv(217) @ 0: reporter [Questa UVM]  questa_uvm::init(+struct)
# UVM_INFO @ 0: reporter [RNTST] Running test regression_test...
# UVM_INFO apb_environment.sv(23) @ 0: uvm_test_top.apb_env [ENV] Build: agent='{m_leaf_name:"apb_agent_1", m_inst_id:485, use_uvm_seeding:1, m_inst_count:549, __m_uvm_status_container:@uvm_status_container@1, m_rh:@uvm_report_handler@74, enable_stop_interrupt:0, print_enabled:1, recorder:null, m_domain:@uvm_domain@2, m_phase_imps:'{ }, m_current_phase:null, m_phase_process:null, m_build_done:0, m_phasing_active:0, m_parent:@apb_environment@1, m_children:'{ }, m_children_by_handle:'{ }, m_stream_handle:'{ }, m_tr_h:'{ }, m_name:"uvm_test_top.apb_env.apb_agent_1", event_pool:@uvm_object_string_pool__1@3, recording_detail:0, m_verbosity_settings:'{}, m_config_set:1, print_config_matches:0, type_name:"uvm_component", m_time_settings:'{}, is_active:UVM_ACTIVE, type_name:"uvm_agent", drv:null, seqr:null, mon_in:null, type_name:"apb_active_agent"}, scoreboard='{m_leaf_name:"apb_scoreboard_1", m_inst_id:499, use_uvm_seeding:1, m_inst_count:549, __m_uvm_status_container:@uvm_status_container@1, m_rh:@uvm_report_handler@76, enable_stop_interrupt:0, print_enabled:1, recorder:null, m_domain:@uvm_domain@2, m_phase_imps:'{ }, m_current_phase:null, m_phase_process:null, m_build_done:0, m_phasing_active:0, m_parent:@apb_environment@1, m_children:'{"inp_mon_port":@uvm_port_component__6@2, "out_mon_port":@uvm_port_component__6@1 }, m_children_by_handle:'{@uvm_port_component__6@1:@uvm_port_component__6@1, @uvm_port_component__6@2:@uvm_port_component__6@2 }, m_stream_handle:'{ }, m_tr_h:'{ }, m_name:"uvm_test_top.apb_env.apb_scoreboard_1", event_pool:@uvm_object_string_pool__1@5, recording_detail:0, m_verbosity_settings:'{}, m_config_set:1, print_config_matches:0, type_name:"uvm_component", m_time_settings:'{}, type_name:"uvm_scoreboard", mem:'{x, x, x, x, x, x, x, x, x, x, x, x, x, x, x, x, x, x, x, x, x, x, x, x, x, x, x, x, x, x, x, x, x, x, x, x, x, x, x, x, x, x, x, x, x, x, x, x, x, x, x, x, x, x, x, x, x, x, x, x, x, x, x, x, x, x, x, x, x, x, x, x, x, x, x, x, x, x, x, x, x, x, x, x, x, x, x, x, x, x, x, x, x, x, x, x, x, x, x, x, x, x, x, x, x, x, x, x, x, x, x, x, x, x, x, x, x, x, x, x, x, x, x, x, x, x, x, x, x, x, x, x, x, x, x, x, x, x, x, x, x, x, x, x, x, x, x, x, x, x, x, x, x, x, x, x, x, x, x, x, x, x, x, x, x, x, x, x, x, x, x, x, x, x, x, x, x, x, x, x, x, x, x, x, x, x, x, x, x, x, x, x, x, x, x, x, x, x, x, x, x, x, x, x, x, x, x, x, x, x, x, x, x, x, x, x, x, x, x, x, x, x, x, x, x, x, x, x, x, x, x, x, x, x, x, x, x, x, x, x, x, x, x, x, x, x, x, x, x, x, x, x, x, x, x, x, x, x, x, x, x, x, x, x, x, x, x, x, x, x, x, x, x, x, x, x, x, x, x, x, x, x, x, x, x, x, x, x, x, x, x, x, x, x, x, x, x, x, x, x, x, x, x, x, x, x, x, x, x, x, x, x, x, x, x, x, x, x, x, x, x, x, x, x, x, x, x, x, x, x, x, x, x, x, x, x, x, x, x, x, x, x, x, x, x, x, x, x, x, x, x, x, x, x, x, x, x, x, x, x, x, x, x, x, x, x, x, x, x, x, x, x, x, x, x, x, x, x, x, x, x, x, x, x, x, x, x, x, x, x, x, x, x, x, x, x, x, x, x, x, x, x, x, x, x, x, x, x, x, x, x, x, x, x, x, x, x, x, x, x, x, x, x, x, x, x, x, x, x, x, x, x, x, x, x, x, x, x, x, x, x, x, x, x, x, x, x, x, x, x, x, x, x, x, x, x, x, x, x, x, x, x, x, x, x, x, x, x, x, x, x, x, x, x, x, x, x, x, x, x, x, x, x, x, x, x, x, x, x, x, x, x, x, x, x, x, x, x, x, x, x, x, x, x, x, x, x, x, x, x, x, x}, PASS:0, FAIL:0, inp_q:'{}, out_q:'{}, out_mon_port:@uvm_analysis_imp_out_mon_scb__1@1, inp_mon_port:@uvm_analysis_imp_in_mon_scb__1@1, inp_mon_item:null, out_mon_item:null, vif:null, type_name:"apb_scoreboard"}
# UVM_INFO @ 0: reporter [UVMTOP] UVM testbench topology:
# --------------------------------------------------------------------------
# Name                             Type                          Size  Value
# --------------------------------------------------------------------------
# uvm_test_top                     regression_test               -     @471 
#   apb_env                        apb_environment               -     @478 
#     apb_agent_1                  apb_active_agent              -     @485 
#       drv                        apb_driver                    -     @659 
#         rsp_port                 uvm_analysis_port             -     @674 
#         seq_item_port            uvm_seq_item_pull_port        -     @666 
#       mon_in                     apb_input_monitor             -     @682 
#         item_collected_in_port   uvm_analysis_port             -     @689 
#       seqr                       apb_sequencer                 -     @550 
#         rsp_export               uvm_analysis_export           -     @557 
#         seq_item_export          uvm_seq_item_pull_imp         -     @651 
#         arbitration_queue        array                         0     -    
#         lock_queue               array                         0     -    
#         num_last_reqs            integral                      32    'd1  
#         num_last_rsps            integral                      32    'd1  
#     apb_agent_2                  apb_passive_agent             -     @492 
#       mon_out                    apb_output_monitor            -     @709 
#         item_collected_out_port  uvm_analysis_port             -     @716 
#     apb_coverage_1               apb_coverage                  -     @522 
#       aport_ip_mon               uvm_analysis_imp_act_mon_cg   -     @529 
#       aport_out_mon              uvm_analysis_imp_pass_mon_cg  -     @537 
#     apb_scoreboard_1             apb_scoreboard                -     @499 
#       inp_mon_port               uvm_analysis_imp_in_mon_scb   -     @514 
#       out_mon_port               uvm_analysis_imp_out_mon_scb  -     @506 
# --------------------------------------------------------------------------
# 
# DRIVER : W_ADDR = 001, R_ADDR = 141, READ_WRITE = 0
# mem stored = 0x14 at 0x1
# UVM_INFO apb_scoreboard.sv(39) @ 45: uvm_test_top.apb_env.apb_scoreboard_1 [SCOREBOARD] WRITE: Addr=0x1 Data=0x14, transfer = 1
# DRIVER : W_ADDR = 1c8, R_ADDR = 001, READ_WRITE = 1
# UVM_INFO apb_scoreboard.sv(43) @ 75: uvm_test_top.apb_env.apb_scoreboard_1 [SCOREBOARD] READ: Addr=0x1 Data=0x14, transfer = 1
# UVM_INFO apb_scoreboard.sv(45) @ 75: uvm_test_top.apb_env.apb_scoreboard_1 [apb_scoreboard] ---------------------------------------
# UVM_INFO apb_scoreboard.sv(46) @ 75: uvm_test_top.apb_env.apb_scoreboard_1 [apb_scoreboard] ----           TEST PASS           ----
# UVM_INFO apb_scoreboard.sv(47) @ 75: uvm_test_top.apb_env.apb_scoreboard_1 [apb_scoreboard] ---------------------------------------
# DRIVER : W_ADDR = 00a, R_ADDR = 1d3, READ_WRITE = 0
# mem stored = 0xe9 at 0xa
# UVM_INFO apb_scoreboard.sv(39) @ 105: uvm_test_top.apb_env.apb_scoreboard_1 [SCOREBOARD] WRITE: Addr=0xa Data=0xe9, transfer = 1
# DRIVER : W_ADDR = 0ff, R_ADDR = 00a, READ_WRITE = 1
# UVM_INFO apb_scoreboard.sv(43) @ 135: uvm_test_top.apb_env.apb_scoreboard_1 [SCOREBOARD] READ: Addr=0xa Data=0xe9, transfer = 1
# UVM_INFO apb_scoreboard.sv(45) @ 135: uvm_test_top.apb_env.apb_scoreboard_1 [apb_scoreboard] ---------------------------------------
# UVM_INFO apb_scoreboard.sv(46) @ 135: uvm_test_top.apb_env.apb_scoreboard_1 [apb_scoreboard] ----           TEST PASS           ----
# UVM_INFO apb_scoreboard.sv(47) @ 135: uvm_test_top.apb_env.apb_scoreboard_1 [apb_scoreboard] ---------------------------------------
# DRIVER : W_ADDR = 003, R_ADDR = 1e9, READ_WRITE = 0
# mem stored = 0x9 at 0x3
# UVM_INFO apb_scoreboard.sv(39) @ 165: uvm_test_top.apb_env.apb_scoreboard_1 [SCOREBOARD] WRITE: Addr=0x3 Data=0x9, transfer = 1
# DRIVER : W_ADDR = 0d9, R_ADDR = 003, READ_WRITE = 1
# UVM_INFO apb_scoreboard.sv(43) @ 195: uvm_test_top.apb_env.apb_scoreboard_1 [SCOREBOARD] READ: Addr=0x3 Data=0x9, transfer = 1
# UVM_INFO apb_scoreboard.sv(45) @ 195: uvm_test_top.apb_env.apb_scoreboard_1 [apb_scoreboard] ---------------------------------------
# UVM_INFO apb_scoreboard.sv(46) @ 195: uvm_test_top.apb_env.apb_scoreboard_1 [apb_scoreboard] ----           TEST PASS           ----
# UVM_INFO apb_scoreboard.sv(47) @ 195: uvm_test_top.apb_env.apb_scoreboard_1 [apb_scoreboard] ---------------------------------------
# DRIVER : W_ADDR = 003, R_ADDR = 044, READ_WRITE = 0
# mem stored = 0x24 at 0x3
# UVM_INFO apb_scoreboard.sv(39) @ 225: uvm_test_top.apb_env.apb_scoreboard_1 [SCOREBOARD] WRITE: Addr=0x3 Data=0x24, transfer = 1
# DRIVER : W_ADDR = 1f6, R_ADDR = 003, READ_WRITE = 1
# UVM_INFO apb_scoreboard.sv(43) @ 255: uvm_test_top.apb_env.apb_scoreboard_1 [SCOREBOARD] READ: Addr=0x3 Data=0x24, transfer = 1
# UVM_INFO apb_scoreboard.sv(45) @ 255: uvm_test_top.apb_env.apb_scoreboard_1 [apb_scoreboard] ---------------------------------------
# UVM_INFO apb_scoreboard.sv(46) @ 255: uvm_test_top.apb_env.apb_scoreboard_1 [apb_scoreboard] ----           TEST PASS           ----
# UVM_INFO apb_scoreboard.sv(47) @ 255: uvm_test_top.apb_env.apb_scoreboard_1 [apb_scoreboard] ---------------------------------------
# DRIVER : W_ADDR = 006, R_ADDR = 1a6, READ_WRITE = 0
# mem stored = 0x2b at 0x6
# UVM_INFO apb_scoreboard.sv(39) @ 285: uvm_test_top.apb_env.apb_scoreboard_1 [SCOREBOARD] WRITE: Addr=0x6 Data=0x2b, transfer = 1
# DRIVER : W_ADDR = 128, R_ADDR = 006, READ_WRITE = 1
# UVM_INFO apb_scoreboard.sv(43) @ 315: uvm_test_top.apb_env.apb_scoreboard_1 [SCOREBOARD] READ: Addr=0x6 Data=0x2b, transfer = 1
# UVM_INFO apb_scoreboard.sv(45) @ 315: uvm_test_top.apb_env.apb_scoreboard_1 [apb_scoreboard] ---------------------------------------
# UVM_INFO apb_scoreboard.sv(46) @ 315: uvm_test_top.apb_env.apb_scoreboard_1 [apb_scoreboard] ----           TEST PASS           ----
# UVM_INFO apb_scoreboard.sv(47) @ 315: uvm_test_top.apb_env.apb_scoreboard_1 [apb_scoreboard] ---------------------------------------
# DRIVER : W_ADDR = 000, R_ADDR = 0e2, READ_WRITE = 0
# mem stored = 0x9b at 0x0
# UVM_INFO apb_scoreboard.sv(39) @ 345: uvm_test_top.apb_env.apb_scoreboard_1 [SCOREBOARD] WRITE: Addr=0x0 Data=0x9b, transfer = 1
# DRIVER : W_ADDR = 02e, R_ADDR = 000, READ_WRITE = 1
# UVM_INFO apb_scoreboard.sv(43) @ 375: uvm_test_top.apb_env.apb_scoreboard_1 [SCOREBOARD] READ: Addr=0x0 Data=0x9b, transfer = 1
# UVM_INFO apb_scoreboard.sv(45) @ 375: uvm_test_top.apb_env.apb_scoreboard_1 [apb_scoreboard] ---------------------------------------
# UVM_INFO apb_scoreboard.sv(46) @ 375: uvm_test_top.apb_env.apb_scoreboard_1 [apb_scoreboard] ----           TEST PASS           ----
# UVM_INFO apb_scoreboard.sv(47) @ 375: uvm_test_top.apb_env.apb_scoreboard_1 [apb_scoreboard] ---------------------------------------
# DRIVER : W_ADDR = 006, R_ADDR = 05a, READ_WRITE = 0
# mem stored = 0x9f at 0x6
# UVM_INFO apb_scoreboard.sv(39) @ 405: uvm_test_top.apb_env.apb_scoreboard_1 [SCOREBOARD] WRITE: Addr=0x6 Data=0x9f, transfer = 1
# DRIVER : W_ADDR = 1f1, R_ADDR = 006, READ_WRITE = 1
# UVM_INFO apb_scoreboard.sv(43) @ 435: uvm_test_top.apb_env.apb_scoreboard_1 [SCOREBOARD] READ: Addr=0x6 Data=0x9f, transfer = 1
# UVM_INFO apb_scoreboard.sv(45) @ 435: uvm_test_top.apb_env.apb_scoreboard_1 [apb_scoreboard] ---------------------------------------
# UVM_INFO apb_scoreboard.sv(46) @ 435: uvm_test_top.apb_env.apb_scoreboard_1 [apb_scoreboard] ----           TEST PASS           ----
# UVM_INFO apb_scoreboard.sv(47) @ 435: uvm_test_top.apb_env.apb_scoreboard_1 [apb_scoreboard] ---------------------------------------
# DRIVER : W_ADDR = 00a, R_ADDR = 037, READ_WRITE = 0
# mem stored = 0x8b at 0xa
# UVM_INFO apb_scoreboard.sv(39) @ 465: uvm_test_top.apb_env.apb_scoreboard_1 [SCOREBOARD] WRITE: Addr=0xa Data=0x8b, transfer = 1
# DRIVER : W_ADDR = 10c, R_ADDR = 00a, READ_WRITE = 1
# UVM_INFO apb_scoreboard.sv(43) @ 495: uvm_test_top.apb_env.apb_scoreboard_1 [SCOREBOARD] READ: Addr=0xa Data=0x8b, transfer = 1
# UVM_INFO apb_scoreboard.sv(45) @ 495: uvm_test_top.apb_env.apb_scoreboard_1 [apb_scoreboard] ---------------------------------------
# UVM_INFO apb_scoreboard.sv(46) @ 495: uvm_test_top.apb_env.apb_scoreboard_1 [apb_scoreboard] ----           TEST PASS           ----
# UVM_INFO apb_scoreboard.sv(47) @ 495: uvm_test_top.apb_env.apb_scoreboard_1 [apb_scoreboard] ---------------------------------------
# DRIVER : W_ADDR = 008, R_ADDR = 041, READ_WRITE = 0
# mem stored = 0x3a at 0x8
# UVM_INFO apb_scoreboard.sv(39) @ 525: uvm_test_top.apb_env.apb_scoreboard_1 [SCOREBOARD] WRITE: Addr=0x8 Data=0x3a, transfer = 1
# DRIVER : W_ADDR = 0a9, R_ADDR = 008, READ_WRITE = 1
# UVM_INFO apb_scoreboard.sv(43) @ 555: uvm_test_top.apb_env.apb_scoreboard_1 [SCOREBOARD] READ: Addr=0x8 Data=0x3a, transfer = 1
# UVM_INFO apb_scoreboard.sv(45) @ 555: uvm_test_top.apb_env.apb_scoreboard_1 [apb_scoreboard] ---------------------------------------
# UVM_INFO apb_scoreboard.sv(46) @ 555: uvm_test_top.apb_env.apb_scoreboard_1 [apb_scoreboard] ----           TEST PASS           ----
# UVM_INFO apb_scoreboard.sv(47) @ 555: uvm_test_top.apb_env.apb_scoreboard_1 [apb_scoreboard] ---------------------------------------
# DRIVER : W_ADDR = 006, R_ADDR = 17e, READ_WRITE = 0
# mem stored = 0xad at 0x6
# UVM_INFO apb_scoreboard.sv(39) @ 585: uvm_test_top.apb_env.apb_scoreboard_1 [SCOREBOARD] WRITE: Addr=0x6 Data=0xad, transfer = 1
# DRIVER : W_ADDR = 161, R_ADDR = 006, READ_WRITE = 1
# UVM_INFO apb_scoreboard.sv(43) @ 615: uvm_test_top.apb_env.apb_scoreboard_1 [SCOREBOARD] READ: Addr=0x6 Data=0xad, transfer = 1
# UVM_INFO apb_scoreboard.sv(45) @ 615: uvm_test_top.apb_env.apb_scoreboard_1 [apb_scoreboard] ---------------------------------------
# UVM_INFO apb_scoreboard.sv(46) @ 615: uvm_test_top.apb_env.apb_scoreboard_1 [apb_scoreboard] ----           TEST PASS           ----
# UVM_INFO apb_scoreboard.sv(47) @ 615: uvm_test_top.apb_env.apb_scoreboard_1 [apb_scoreboard] ---------------------------------------
# DRIVER : W_ADDR = 006, R_ADDR = 13a, READ_WRITE = 0
# mem stored = 0x67 at 0x6
# UVM_INFO apb_scoreboard.sv(39) @ 645: uvm_test_top.apb_env.apb_scoreboard_1 [SCOREBOARD] WRITE: Addr=0x6 Data=0x67, transfer = 1
# DRIVER : W_ADDR = 193, R_ADDR = 006, READ_WRITE = 1
# UVM_INFO apb_scoreboard.sv(43) @ 675: uvm_test_top.apb_env.apb_scoreboard_1 [SCOREBOARD] READ: Addr=0x6 Data=0x67, transfer = 1
# UVM_INFO apb_scoreboard.sv(45) @ 675: uvm_test_top.apb_env.apb_scoreboard_1 [apb_scoreboard] ---------------------------------------
# UVM_INFO apb_scoreboard.sv(46) @ 675: uvm_test_top.apb_env.apb_scoreboard_1 [apb_scoreboard] ----           TEST PASS           ----
# UVM_INFO apb_scoreboard.sv(47) @ 675: uvm_test_top.apb_env.apb_scoreboard_1 [apb_scoreboard] ---------------------------------------
# DRIVER : W_ADDR = 002, R_ADDR = 188, READ_WRITE = 0
# mem stored = 0x55 at 0x2
# UVM_INFO apb_scoreboard.sv(39) @ 705: uvm_test_top.apb_env.apb_scoreboard_1 [SCOREBOARD] WRITE: Addr=0x2 Data=0x55, transfer = 1
# DRIVER : W_ADDR = 1d4, R_ADDR = 002, READ_WRITE = 1
# UVM_INFO apb_scoreboard.sv(43) @ 735: uvm_test_top.apb_env.apb_scoreboard_1 [SCOREBOARD] READ: Addr=0x2 Data=0x55, transfer = 1
# UVM_INFO apb_scoreboard.sv(45) @ 735: uvm_test_top.apb_env.apb_scoreboard_1 [apb_scoreboard] ---------------------------------------
# UVM_INFO apb_scoreboard.sv(46) @ 735: uvm_test_top.apb_env.apb_scoreboard_1 [apb_scoreboard] ----           TEST PASS           ----
# UVM_INFO apb_scoreboard.sv(47) @ 735: uvm_test_top.apb_env.apb_scoreboard_1 [apb_scoreboard] ---------------------------------------
# DRIVER : W_ADDR = 002, R_ADDR = 15b, READ_WRITE = 0
# mem stored = 0xdc at 0x2
# UVM_INFO apb_scoreboard.sv(39) @ 765: uvm_test_top.apb_env.apb_scoreboard_1 [SCOREBOARD] WRITE: Addr=0x2 Data=0xdc, transfer = 1
# DRIVER : W_ADDR = 17c, R_ADDR = 002, READ_WRITE = 1
# UVM_INFO apb_scoreboard.sv(43) @ 795: uvm_test_top.apb_env.apb_scoreboard_1 [SCOREBOARD] READ: Addr=0x2 Data=0xdc, transfer = 1
# UVM_INFO apb_scoreboard.sv(45) @ 795: uvm_test_top.apb_env.apb_scoreboard_1 [apb_scoreboard] ---------------------------------------
# UVM_INFO apb_scoreboard.sv(46) @ 795: uvm_test_top.apb_env.apb_scoreboard_1 [apb_scoreboard] ----           TEST PASS           ----
# UVM_INFO apb_scoreboard.sv(47) @ 795: uvm_test_top.apb_env.apb_scoreboard_1 [apb_scoreboard] ---------------------------------------
# DRIVER : W_ADDR = 007, R_ADDR = 10e, READ_WRITE = 0
# mem stored = 0x18 at 0x7
# UVM_INFO apb_scoreboard.sv(39) @ 825: uvm_test_top.apb_env.apb_scoreboard_1 [SCOREBOARD] WRITE: Addr=0x7 Data=0x18, transfer = 1
# DRIVER : W_ADDR = 12f, R_ADDR = 007, READ_WRITE = 1
# UVM_INFO apb_scoreboard.sv(43) @ 855: uvm_test_top.apb_env.apb_scoreboard_1 [SCOREBOARD] READ: Addr=0x7 Data=0x18, transfer = 1
# UVM_INFO apb_scoreboard.sv(45) @ 855: uvm_test_top.apb_env.apb_scoreboard_1 [apb_scoreboard] ---------------------------------------
# UVM_INFO apb_scoreboard.sv(46) @ 855: uvm_test_top.apb_env.apb_scoreboard_1 [apb_scoreboard] ----           TEST PASS           ----
# UVM_INFO apb_scoreboard.sv(47) @ 855: uvm_test_top.apb_env.apb_scoreboard_1 [apb_scoreboard] ---------------------------------------
# DRIVER : W_ADDR = 003, R_ADDR = 051, READ_WRITE = 0
# mem stored = 0x9a at 0x3
# UVM_INFO apb_scoreboard.sv(39) @ 885: uvm_test_top.apb_env.apb_scoreboard_1 [SCOREBOARD] WRITE: Addr=0x3 Data=0x9a, transfer = 1
# DRIVER : W_ADDR = 1e2, R_ADDR = 003, READ_WRITE = 1
# UVM_INFO apb_scoreboard.sv(43) @ 915: uvm_test_top.apb_env.apb_scoreboard_1 [SCOREBOARD] READ: Addr=0x3 Data=0x9a, transfer = 1
# UVM_INFO apb_scoreboard.sv(45) @ 915: uvm_test_top.apb_env.apb_scoreboard_1 [apb_scoreboard] ---------------------------------------
# UVM_INFO apb_scoreboard.sv(46) @ 915: uvm_test_top.apb_env.apb_scoreboard_1 [apb_scoreboard] ----           TEST PASS           ----
# UVM_INFO apb_scoreboard.sv(47) @ 915: uvm_test_top.apb_env.apb_scoreboard_1 [apb_scoreboard] ---------------------------------------
# DRIVER : W_ADDR = 002, R_ADDR = 1c3, READ_WRITE = 0
# mem stored = 0xfc at 0x2
# UVM_INFO apb_scoreboard.sv(39) @ 945: uvm_test_top.apb_env.apb_scoreboard_1 [SCOREBOARD] WRITE: Addr=0x2 Data=0xfc, transfer = 1
# DRIVER : W_ADDR = 0d2, R_ADDR = 002, READ_WRITE = 1
# UVM_INFO apb_scoreboard.sv(43) @ 975: uvm_test_top.apb_env.apb_scoreboard_1 [SCOREBOARD] READ: Addr=0x2 Data=0xfc, transfer = 1
# UVM_INFO apb_scoreboard.sv(45) @ 975: uvm_test_top.apb_env.apb_scoreboard_1 [apb_scoreboard] ---------------------------------------
# UVM_INFO apb_scoreboard.sv(46) @ 975: uvm_test_top.apb_env.apb_scoreboard_1 [apb_scoreboard] ----           TEST PASS           ----
# UVM_INFO apb_scoreboard.sv(47) @ 975: uvm_test_top.apb_env.apb_scoreboard_1 [apb_scoreboard] ---------------------------------------
# DRIVER : W_ADDR = 009, R_ADDR = 0cb, READ_WRITE = 0
# mem stored = 0x93 at 0x9
# UVM_INFO apb_scoreboard.sv(39) @ 1005: uvm_test_top.apb_env.apb_scoreboard_1 [SCOREBOARD] WRITE: Addr=0x9 Data=0x93, transfer = 1
# DRIVER : W_ADDR = 114, R_ADDR = 009, READ_WRITE = 1
# UVM_INFO apb_scoreboard.sv(43) @ 1035: uvm_test_top.apb_env.apb_scoreboard_1 [SCOREBOARD] READ: Addr=0x9 Data=0x93, transfer = 1
# UVM_INFO apb_scoreboard.sv(45) @ 1035: uvm_test_top.apb_env.apb_scoreboard_1 [apb_scoreboard] ---------------------------------------
# UVM_INFO apb_scoreboard.sv(46) @ 1035: uvm_test_top.apb_env.apb_scoreboard_1 [apb_scoreboard] ----           TEST PASS           ----
# UVM_INFO apb_scoreboard.sv(47) @ 1035: uvm_test_top.apb_env.apb_scoreboard_1 [apb_scoreboard] ---------------------------------------
# DRIVER : W_ADDR = 003, R_ADDR = 03f, READ_WRITE = 0
# mem stored = 0xa9 at 0x3
# UVM_INFO apb_scoreboard.sv(39) @ 1065: uvm_test_top.apb_env.apb_scoreboard_1 [SCOREBOARD] WRITE: Addr=0x3 Data=0xa9, transfer = 1
# DRIVER : W_ADDR = 0e0, R_ADDR = 003, READ_WRITE = 1
# UVM_INFO apb_scoreboard.sv(43) @ 1095: uvm_test_top.apb_env.apb_scoreboard_1 [SCOREBOARD] READ: Addr=0x3 Data=0xa9, transfer = 1
# UVM_INFO apb_scoreboard.sv(45) @ 1095: uvm_test_top.apb_env.apb_scoreboard_1 [apb_scoreboard] ---------------------------------------
# UVM_INFO apb_scoreboard.sv(46) @ 1095: uvm_test_top.apb_env.apb_scoreboard_1 [apb_scoreboard] ----           TEST PASS           ----
# UVM_INFO apb_scoreboard.sv(47) @ 1095: uvm_test_top.apb_env.apb_scoreboard_1 [apb_scoreboard] ---------------------------------------
# DRIVER : W_ADDR = 004, R_ADDR = 0f7, READ_WRITE = 0
# mem stored = 0xf0 at 0x4
# UVM_INFO apb_scoreboard.sv(39) @ 1125: uvm_test_top.apb_env.apb_scoreboard_1 [SCOREBOARD] WRITE: Addr=0x4 Data=0xf0, transfer = 1
# DRIVER : W_ADDR = 071, R_ADDR = 004, READ_WRITE = 1
# UVM_INFO apb_scoreboard.sv(43) @ 1155: uvm_test_top.apb_env.apb_scoreboard_1 [SCOREBOARD] READ: Addr=0x4 Data=0xf0, transfer = 1
# UVM_INFO apb_scoreboard.sv(45) @ 1155: uvm_test_top.apb_env.apb_scoreboard_1 [apb_scoreboard] ---------------------------------------
# UVM_INFO apb_scoreboard.sv(46) @ 1155: uvm_test_top.apb_env.apb_scoreboard_1 [apb_scoreboard] ----           TEST PASS           ----
# UVM_INFO apb_scoreboard.sv(47) @ 1155: uvm_test_top.apb_env.apb_scoreboard_1 [apb_scoreboard] ---------------------------------------
# DRIVER : W_ADDR = 005, R_ADDR = 1e9, READ_WRITE = 0
# mem stored = 0xa8 at 0x5
# UVM_INFO apb_scoreboard.sv(39) @ 1185: uvm_test_top.apb_env.apb_scoreboard_1 [SCOREBOARD] WRITE: Addr=0x5 Data=0xa8, transfer = 1
# DRIVER : W_ADDR = 1c9, R_ADDR = 005, READ_WRITE = 1
# UVM_INFO apb_scoreboard.sv(43) @ 1215: uvm_test_top.apb_env.apb_scoreboard_1 [SCOREBOARD] READ: Addr=0x5 Data=0xa8, transfer = 1
# UVM_INFO apb_scoreboard.sv(45) @ 1215: uvm_test_top.apb_env.apb_scoreboard_1 [apb_scoreboard] ---------------------------------------
# UVM_INFO apb_scoreboard.sv(46) @ 1215: uvm_test_top.apb_env.apb_scoreboard_1 [apb_scoreboard] ----           TEST PASS           ----
# UVM_INFO apb_scoreboard.sv(47) @ 1215: uvm_test_top.apb_env.apb_scoreboard_1 [apb_scoreboard] ---------------------------------------
# DRIVER : W_ADDR = 002, R_ADDR = 140, READ_WRITE = 0
# mem stored = 0x74 at 0x2
# UVM_INFO apb_scoreboard.sv(39) @ 1245: uvm_test_top.apb_env.apb_scoreboard_1 [SCOREBOARD] WRITE: Addr=0x2 Data=0x74, transfer = 1
# DRIVER : W_ADDR = 088, R_ADDR = 002, READ_WRITE = 1
# UVM_INFO apb_scoreboard.sv(43) @ 1275: uvm_test_top.apb_env.apb_scoreboard_1 [SCOREBOARD] READ: Addr=0x2 Data=0x74, transfer = 1
# UVM_INFO apb_scoreboard.sv(45) @ 1275: uvm_test_top.apb_env.apb_scoreboard_1 [apb_scoreboard] ---------------------------------------
# UVM_INFO apb_scoreboard.sv(46) @ 1275: uvm_test_top.apb_env.apb_scoreboard_1 [apb_scoreboard] ----           TEST PASS           ----
# UVM_INFO apb_scoreboard.sv(47) @ 1275: uvm_test_top.apb_env.apb_scoreboard_1 [apb_scoreboard] ---------------------------------------
# DRIVER : W_ADDR = 00a, R_ADDR = 142, READ_WRITE = 0
# mem stored = 0x26 at 0xa
# UVM_INFO apb_scoreboard.sv(39) @ 1305: uvm_test_top.apb_env.apb_scoreboard_1 [SCOREBOARD] WRITE: Addr=0xa Data=0x26, transfer = 1
# DRIVER : W_ADDR = 182, R_ADDR = 00a, READ_WRITE = 1
# UVM_INFO apb_scoreboard.sv(43) @ 1335: uvm_test_top.apb_env.apb_scoreboard_1 [SCOREBOARD] READ: Addr=0xa Data=0x26, transfer = 1
# UVM_INFO apb_scoreboard.sv(45) @ 1335: uvm_test_top.apb_env.apb_scoreboard_1 [apb_scoreboard] ---------------------------------------
# UVM_INFO apb_scoreboard.sv(46) @ 1335: uvm_test_top.apb_env.apb_scoreboard_1 [apb_scoreboard] ----           TEST PASS           ----
# UVM_INFO apb_scoreboard.sv(47) @ 1335: uvm_test_top.apb_env.apb_scoreboard_1 [apb_scoreboard] ---------------------------------------
# DRIVER : W_ADDR = 00a, R_ADDR = 04c, READ_WRITE = 0
# mem stored = 0x38 at 0xa
# UVM_INFO apb_scoreboard.sv(39) @ 1365: uvm_test_top.apb_env.apb_scoreboard_1 [SCOREBOARD] WRITE: Addr=0xa Data=0x38, transfer = 1
# DRIVER : W_ADDR = 05c, R_ADDR = 00a, READ_WRITE = 1
# UVM_INFO apb_scoreboard.sv(43) @ 1395: uvm_test_top.apb_env.apb_scoreboard_1 [SCOREBOARD] READ: Addr=0xa Data=0x38, transfer = 1
# UVM_INFO apb_scoreboard.sv(45) @ 1395: uvm_test_top.apb_env.apb_scoreboard_1 [apb_scoreboard] ---------------------------------------
# UVM_INFO apb_scoreboard.sv(46) @ 1395: uvm_test_top.apb_env.apb_scoreboard_1 [apb_scoreboard] ----           TEST PASS           ----
# UVM_INFO apb_scoreboard.sv(47) @ 1395: uvm_test_top.apb_env.apb_scoreboard_1 [apb_scoreboard] ---------------------------------------
# DRIVER : W_ADDR = 002, R_ADDR = 1f6, READ_WRITE = 0
# mem stored = 0x46 at 0x2
# UVM_INFO apb_scoreboard.sv(39) @ 1425: uvm_test_top.apb_env.apb_scoreboard_1 [SCOREBOARD] WRITE: Addr=0x2 Data=0x46, transfer = 1
# DRIVER : W_ADDR = 085, R_ADDR = 002, READ_WRITE = 1
# UVM_INFO apb_scoreboard.sv(43) @ 1455: uvm_test_top.apb_env.apb_scoreboard_1 [SCOREBOARD] READ: Addr=0x2 Data=0x46, transfer = 1
# UVM_INFO apb_scoreboard.sv(45) @ 1455: uvm_test_top.apb_env.apb_scoreboard_1 [apb_scoreboard] ---------------------------------------
# UVM_INFO apb_scoreboard.sv(46) @ 1455: uvm_test_top.apb_env.apb_scoreboard_1 [apb_scoreboard] ----           TEST PASS           ----
# UVM_INFO apb_scoreboard.sv(47) @ 1455: uvm_test_top.apb_env.apb_scoreboard_1 [apb_scoreboard] ---------------------------------------
# DRIVER : W_ADDR = 001, R_ADDR = 01e, READ_WRITE = 0
# mem stored = 0x8 at 0x1
# UVM_INFO apb_scoreboard.sv(39) @ 1485: uvm_test_top.apb_env.apb_scoreboard_1 [SCOREBOARD] WRITE: Addr=0x1 Data=0x8, transfer = 1
# DRIVER : W_ADDR = 1d5, R_ADDR = 001, READ_WRITE = 1
# UVM_INFO apb_scoreboard.sv(43) @ 1515: uvm_test_top.apb_env.apb_scoreboard_1 [SCOREBOARD] READ: Addr=0x1 Data=0x8, transfer = 1
# UVM_INFO apb_scoreboard.sv(45) @ 1515: uvm_test_top.apb_env.apb_scoreboard_1 [apb_scoreboard] ---------------------------------------
# UVM_INFO apb_scoreboard.sv(46) @ 1515: uvm_test_top.apb_env.apb_scoreboard_1 [apb_scoreboard] ----           TEST PASS           ----
# UVM_INFO apb_scoreboard.sv(47) @ 1515: uvm_test_top.apb_env.apb_scoreboard_1 [apb_scoreboard] ---------------------------------------
# DRIVER : W_ADDR = 005, R_ADDR = 10c, READ_WRITE = 0
# mem stored = 0xa4 at 0x5
# UVM_INFO apb_scoreboard.sv(39) @ 1545: uvm_test_top.apb_env.apb_scoreboard_1 [SCOREBOARD] WRITE: Addr=0x5 Data=0xa4, transfer = 1
# DRIVER : W_ADDR = 13c, R_ADDR = 005, READ_WRITE = 1
# UVM_INFO apb_scoreboard.sv(43) @ 1575: uvm_test_top.apb_env.apb_scoreboard_1 [SCOREBOARD] READ: Addr=0x5 Data=0xa4, transfer = 1
# UVM_INFO apb_scoreboard.sv(45) @ 1575: uvm_test_top.apb_env.apb_scoreboard_1 [apb_scoreboard] ---------------------------------------
# UVM_INFO apb_scoreboard.sv(46) @ 1575: uvm_test_top.apb_env.apb_scoreboard_1 [apb_scoreboard] ----           TEST PASS           ----
# UVM_INFO apb_scoreboard.sv(47) @ 1575: uvm_test_top.apb_env.apb_scoreboard_1 [apb_scoreboard] ---------------------------------------
# DRIVER : W_ADDR = 005, R_ADDR = 1f5, READ_WRITE = 0
# mem stored = 0x72 at 0x5
# UVM_INFO apb_scoreboard.sv(39) @ 1605: uvm_test_top.apb_env.apb_scoreboard_1 [SCOREBOARD] WRITE: Addr=0x5 Data=0x72, transfer = 1
# DRIVER : W_ADDR = 054, R_ADDR = 005, READ_WRITE = 1
# UVM_INFO apb_scoreboard.sv(43) @ 1635: uvm_test_top.apb_env.apb_scoreboard_1 [SCOREBOARD] READ: Addr=0x5 Data=0x72, transfer = 1
# UVM_INFO apb_scoreboard.sv(45) @ 1635: uvm_test_top.apb_env.apb_scoreboard_1 [apb_scoreboard] ---------------------------------------
# UVM_INFO apb_scoreboard.sv(46) @ 1635: uvm_test_top.apb_env.apb_scoreboard_1 [apb_scoreboard] ----           TEST PASS           ----
# UVM_INFO apb_scoreboard.sv(47) @ 1635: uvm_test_top.apb_env.apb_scoreboard_1 [apb_scoreboard] ---------------------------------------
# DRIVER : W_ADDR = 00a, R_ADDR = 0bf, READ_WRITE = 0
# mem stored = 0xf0 at 0xa
# UVM_INFO apb_scoreboard.sv(39) @ 1665: uvm_test_top.apb_env.apb_scoreboard_1 [SCOREBOARD] WRITE: Addr=0xa Data=0xf0, transfer = 1
# DRIVER : W_ADDR = 1ec, R_ADDR = 00a, READ_WRITE = 1
# UVM_INFO apb_scoreboard.sv(43) @ 1695: uvm_test_top.apb_env.apb_scoreboard_1 [SCOREBOARD] READ: Addr=0xa Data=0xf0, transfer = 1
# UVM_INFO apb_scoreboard.sv(45) @ 1695: uvm_test_top.apb_env.apb_scoreboard_1 [apb_scoreboard] ---------------------------------------
# UVM_INFO apb_scoreboard.sv(46) @ 1695: uvm_test_top.apb_env.apb_scoreboard_1 [apb_scoreboard] ----           TEST PASS           ----
# UVM_INFO apb_scoreboard.sv(47) @ 1695: uvm_test_top.apb_env.apb_scoreboard_1 [apb_scoreboard] ---------------------------------------
# DRIVER : W_ADDR = 005, R_ADDR = 1c3, READ_WRITE = 0
# mem stored = 0x56 at 0x5
# UVM_INFO apb_scoreboard.sv(39) @ 1725: uvm_test_top.apb_env.apb_scoreboard_1 [SCOREBOARD] WRITE: Addr=0x5 Data=0x56, transfer = 1
# DRIVER : W_ADDR = 17d, R_ADDR = 005, READ_WRITE = 1
# UVM_INFO apb_scoreboard.sv(43) @ 1755: uvm_test_top.apb_env.apb_scoreboard_1 [SCOREBOARD] READ: Addr=0x5 Data=0x56, transfer = 1
# UVM_INFO apb_scoreboard.sv(45) @ 1755: uvm_test_top.apb_env.apb_scoreboard_1 [apb_scoreboard] ---------------------------------------
# UVM_INFO apb_scoreboard.sv(46) @ 1755: uvm_test_top.apb_env.apb_scoreboard_1 [apb_scoreboard] ----           TEST PASS           ----
# UVM_INFO apb_scoreboard.sv(47) @ 1755: uvm_test_top.apb_env.apb_scoreboard_1 [apb_scoreboard] ---------------------------------------
# DRIVER : W_ADDR = 006, R_ADDR = 111, READ_WRITE = 0
# mem stored = 0x46 at 0x6
# UVM_INFO apb_scoreboard.sv(39) @ 1785: uvm_test_top.apb_env.apb_scoreboard_1 [SCOREBOARD] WRITE: Addr=0x6 Data=0x46, transfer = 1
# DRIVER : W_ADDR = 074, R_ADDR = 006, READ_WRITE = 1
# UVM_INFO apb_scoreboard.sv(43) @ 1815: uvm_test_top.apb_env.apb_scoreboard_1 [SCOREBOARD] READ: Addr=0x6 Data=0x46, transfer = 1
# UVM_INFO apb_scoreboard.sv(45) @ 1815: uvm_test_top.apb_env.apb_scoreboard_1 [apb_scoreboard] ---------------------------------------
# UVM_INFO apb_scoreboard.sv(46) @ 1815: uvm_test_top.apb_env.apb_scoreboard_1 [apb_scoreboard] ----           TEST PASS           ----
# UVM_INFO apb_scoreboard.sv(47) @ 1815: uvm_test_top.apb_env.apb_scoreboard_1 [apb_scoreboard] ---------------------------------------
# DRIVER : W_ADDR = 003, R_ADDR = 1c2, READ_WRITE = 0
# mem stored = 0x3d at 0x3
# UVM_INFO apb_scoreboard.sv(39) @ 1845: uvm_test_top.apb_env.apb_scoreboard_1 [SCOREBOARD] WRITE: Addr=0x3 Data=0x3d, transfer = 1
# DRIVER : W_ADDR = 17e, R_ADDR = 003, READ_WRITE = 1
# UVM_INFO apb_scoreboard.sv(43) @ 1875: uvm_test_top.apb_env.apb_scoreboard_1 [SCOREBOARD] READ: Addr=0x3 Data=0x3d, transfer = 1
# UVM_INFO apb_scoreboard.sv(45) @ 1875: uvm_test_top.apb_env.apb_scoreboard_1 [apb_scoreboard] ---------------------------------------
# UVM_INFO apb_scoreboard.sv(46) @ 1875: uvm_test_top.apb_env.apb_scoreboard_1 [apb_scoreboard] ----           TEST PASS           ----
# UVM_INFO apb_scoreboard.sv(47) @ 1875: uvm_test_top.apb_env.apb_scoreboard_1 [apb_scoreboard] ---------------------------------------
# DRIVER : W_ADDR = 009, R_ADDR = 07f, READ_WRITE = 0
# mem stored = 0xa5 at 0x9
# UVM_INFO apb_scoreboard.sv(39) @ 1905: uvm_test_top.apb_env.apb_scoreboard_1 [SCOREBOARD] WRITE: Addr=0x9 Data=0xa5, transfer = 1
# DRIVER : W_ADDR = 036, R_ADDR = 009, READ_WRITE = 1
# UVM_INFO apb_scoreboard.sv(43) @ 1935: uvm_test_top.apb_env.apb_scoreboard_1 [SCOREBOARD] READ: Addr=0x9 Data=0xa5, transfer = 1
# UVM_INFO apb_scoreboard.sv(45) @ 1935: uvm_test_top.apb_env.apb_scoreboard_1 [apb_scoreboard] ---------------------------------------
# UVM_INFO apb_scoreboard.sv(46) @ 1935: uvm_test_top.apb_env.apb_scoreboard_1 [apb_scoreboard] ----           TEST PASS           ----
# UVM_INFO apb_scoreboard.sv(47) @ 1935: uvm_test_top.apb_env.apb_scoreboard_1 [apb_scoreboard] ---------------------------------------
# DRIVER : W_ADDR = 005, R_ADDR = 012, READ_WRITE = 0
# mem stored = 0xa9 at 0x5
# UVM_INFO apb_scoreboard.sv(39) @ 1965: uvm_test_top.apb_env.apb_scoreboard_1 [SCOREBOARD] WRITE: Addr=0x5 Data=0xa9, transfer = 1
# DRIVER : W_ADDR = 09f, R_ADDR = 005, READ_WRITE = 1
# UVM_INFO apb_scoreboard.sv(43) @ 1995: uvm_test_top.apb_env.apb_scoreboard_1 [SCOREBOARD] READ: Addr=0x5 Data=0xa9, transfer = 1
# UVM_INFO apb_scoreboard.sv(45) @ 1995: uvm_test_top.apb_env.apb_scoreboard_1 [apb_scoreboard] ---------------------------------------
# UVM_INFO apb_scoreboard.sv(46) @ 1995: uvm_test_top.apb_env.apb_scoreboard_1 [apb_scoreboard] ----           TEST PASS           ----
# UVM_INFO apb_scoreboard.sv(47) @ 1995: uvm_test_top.apb_env.apb_scoreboard_1 [apb_scoreboard] ---------------------------------------
# DRIVER : W_ADDR = 00b, R_ADDR = 1a2, READ_WRITE = 0
# mem stored = 0x2a at 0xb
# UVM_INFO apb_scoreboard.sv(39) @ 2025: uvm_test_top.apb_env.apb_scoreboard_1 [SCOREBOARD] WRITE: Addr=0xb Data=0x2a, transfer = 1
# DRIVER : W_ADDR = 139, R_ADDR = 00b, READ_WRITE = 1
# UVM_INFO apb_scoreboard.sv(43) @ 2055: uvm_test_top.apb_env.apb_scoreboard_1 [SCOREBOARD] READ: Addr=0xb Data=0x2a, transfer = 1
# UVM_INFO apb_scoreboard.sv(45) @ 2055: uvm_test_top.apb_env.apb_scoreboard_1 [apb_scoreboard] ---------------------------------------
# UVM_INFO apb_scoreboard.sv(46) @ 2055: uvm_test_top.apb_env.apb_scoreboard_1 [apb_scoreboard] ----           TEST PASS           ----
# UVM_INFO apb_scoreboard.sv(47) @ 2055: uvm_test_top.apb_env.apb_scoreboard_1 [apb_scoreboard] ---------------------------------------
# DRIVER : W_ADDR = 00b, R_ADDR = 16f, READ_WRITE = 0
# mem stored = 0x9a at 0xb
# UVM_INFO apb_scoreboard.sv(39) @ 2085: uvm_test_top.apb_env.apb_scoreboard_1 [SCOREBOARD] WRITE: Addr=0xb Data=0x9a, transfer = 1
# DRIVER : W_ADDR = 0c7, R_ADDR = 00b, READ_WRITE = 1
# UVM_INFO apb_scoreboard.sv(43) @ 2115: uvm_test_top.apb_env.apb_scoreboard_1 [SCOREBOARD] READ: Addr=0xb Data=0x9a, transfer = 1
# UVM_INFO apb_scoreboard.sv(45) @ 2115: uvm_test_top.apb_env.apb_scoreboard_1 [apb_scoreboard] ---------------------------------------
# UVM_INFO apb_scoreboard.sv(46) @ 2115: uvm_test_top.apb_env.apb_scoreboard_1 [apb_scoreboard] ----           TEST PASS           ----
# UVM_INFO apb_scoreboard.sv(47) @ 2115: uvm_test_top.apb_env.apb_scoreboard_1 [apb_scoreboard] ---------------------------------------
# DRIVER : W_ADDR = 005, R_ADDR = 12e, READ_WRITE = 0
# mem stored = 0xfd at 0x5
# UVM_INFO apb_scoreboard.sv(39) @ 2145: uvm_test_top.apb_env.apb_scoreboard_1 [SCOREBOARD] WRITE: Addr=0x5 Data=0xfd, transfer = 1
# DRIVER : W_ADDR = 0c2, R_ADDR = 005, READ_WRITE = 1
# UVM_INFO apb_scoreboard.sv(43) @ 2175: uvm_test_top.apb_env.apb_scoreboard_1 [SCOREBOARD] READ: Addr=0x5 Data=0xfd, transfer = 1
# UVM_INFO apb_scoreboard.sv(45) @ 2175: uvm_test_top.apb_env.apb_scoreboard_1 [apb_scoreboard] ---------------------------------------
# UVM_INFO apb_scoreboard.sv(46) @ 2175: uvm_test_top.apb_env.apb_scoreboard_1 [apb_scoreboard] ----           TEST PASS           ----
# UVM_INFO apb_scoreboard.sv(47) @ 2175: uvm_test_top.apb_env.apb_scoreboard_1 [apb_scoreboard] ---------------------------------------
# DRIVER : W_ADDR = 004, R_ADDR = 188, READ_WRITE = 0
# mem stored = 0xdd at 0x4
# UVM_INFO apb_scoreboard.sv(39) @ 2205: uvm_test_top.apb_env.apb_scoreboard_1 [SCOREBOARD] WRITE: Addr=0x4 Data=0xdd, transfer = 1
# DRIVER : W_ADDR = 00a, R_ADDR = 004, READ_WRITE = 1
# UVM_INFO apb_scoreboard.sv(43) @ 2235: uvm_test_top.apb_env.apb_scoreboard_1 [SCOREBOARD] READ: Addr=0x4 Data=0xdd, transfer = 1
# UVM_INFO apb_scoreboard.sv(45) @ 2235: uvm_test_top.apb_env.apb_scoreboard_1 [apb_scoreboard] ---------------------------------------
# UVM_INFO apb_scoreboard.sv(46) @ 2235: uvm_test_top.apb_env.apb_scoreboard_1 [apb_scoreboard] ----           TEST PASS           ----
# UVM_INFO apb_scoreboard.sv(47) @ 2235: uvm_test_top.apb_env.apb_scoreboard_1 [apb_scoreboard] ---------------------------------------
# DRIVER : W_ADDR = 002, R_ADDR = 0bd, READ_WRITE = 0
# mem stored = 0x49 at 0x2
# UVM_INFO apb_scoreboard.sv(39) @ 2265: uvm_test_top.apb_env.apb_scoreboard_1 [SCOREBOARD] WRITE: Addr=0x2 Data=0x49, transfer = 1
# DRIVER : W_ADDR = 156, R_ADDR = 002, READ_WRITE = 1
# UVM_INFO apb_scoreboard.sv(43) @ 2295: uvm_test_top.apb_env.apb_scoreboard_1 [SCOREBOARD] READ: Addr=0x2 Data=0x49, transfer = 1
# UVM_INFO apb_scoreboard.sv(45) @ 2295: uvm_test_top.apb_env.apb_scoreboard_1 [apb_scoreboard] ---------------------------------------
# UVM_INFO apb_scoreboard.sv(46) @ 2295: uvm_test_top.apb_env.apb_scoreboard_1 [apb_scoreboard] ----           TEST PASS           ----
# UVM_INFO apb_scoreboard.sv(47) @ 2295: uvm_test_top.apb_env.apb_scoreboard_1 [apb_scoreboard] ---------------------------------------
# DRIVER : W_ADDR = 008, R_ADDR = 18d, READ_WRITE = 0
# mem stored = 0xb2 at 0x8
# UVM_INFO apb_scoreboard.sv(39) @ 2325: uvm_test_top.apb_env.apb_scoreboard_1 [SCOREBOARD] WRITE: Addr=0x8 Data=0xb2, transfer = 1
# DRIVER : W_ADDR = 015, R_ADDR = 008, READ_WRITE = 1
# UVM_INFO apb_scoreboard.sv(43) @ 2355: uvm_test_top.apb_env.apb_scoreboard_1 [SCOREBOARD] READ: Addr=0x8 Data=0xb2, transfer = 1
# UVM_INFO apb_scoreboard.sv(45) @ 2355: uvm_test_top.apb_env.apb_scoreboard_1 [apb_scoreboard] ---------------------------------------
# UVM_INFO apb_scoreboard.sv(46) @ 2355: uvm_test_top.apb_env.apb_scoreboard_1 [apb_scoreboard] ----           TEST PASS           ----
# UVM_INFO apb_scoreboard.sv(47) @ 2355: uvm_test_top.apb_env.apb_scoreboard_1 [apb_scoreboard] ---------------------------------------
# DRIVER : W_ADDR = 005, R_ADDR = 183, READ_WRITE = 0
# mem stored = 0xed at 0x5
# UVM_INFO apb_scoreboard.sv(39) @ 2385: uvm_test_top.apb_env.apb_scoreboard_1 [SCOREBOARD] WRITE: Addr=0x5 Data=0xed, transfer = 1
# DRIVER : W_ADDR = 1c7, R_ADDR = 005, READ_WRITE = 1
# UVM_INFO apb_scoreboard.sv(43) @ 2415: uvm_test_top.apb_env.apb_scoreboard_1 [SCOREBOARD] READ: Addr=0x5 Data=0xed, transfer = 1
# UVM_INFO apb_scoreboard.sv(45) @ 2415: uvm_test_top.apb_env.apb_scoreboard_1 [apb_scoreboard] ---------------------------------------
# UVM_INFO apb_scoreboard.sv(46) @ 2415: uvm_test_top.apb_env.apb_scoreboard_1 [apb_scoreboard] ----           TEST PASS           ----
# UVM_INFO apb_scoreboard.sv(47) @ 2415: uvm_test_top.apb_env.apb_scoreboard_1 [apb_scoreboard] ---------------------------------------
# DRIVER : W_ADDR = 001, R_ADDR = 009, READ_WRITE = 0
# mem stored = 0x8d at 0x1
# UVM_INFO apb_scoreboard.sv(39) @ 2445: uvm_test_top.apb_env.apb_scoreboard_1 [SCOREBOARD] WRITE: Addr=0x1 Data=0x8d, transfer = 1
# DRIVER : W_ADDR = 10d, R_ADDR = 001, READ_WRITE = 1
# UVM_INFO apb_scoreboard.sv(43) @ 2475: uvm_test_top.apb_env.apb_scoreboard_1 [SCOREBOARD] READ: Addr=0x1 Data=0x8d, transfer = 1
# UVM_INFO apb_scoreboard.sv(45) @ 2475: uvm_test_top.apb_env.apb_scoreboard_1 [apb_scoreboard] ---------------------------------------
# UVM_INFO apb_scoreboard.sv(46) @ 2475: uvm_test_top.apb_env.apb_scoreboard_1 [apb_scoreboard] ----           TEST PASS           ----
# UVM_INFO apb_scoreboard.sv(47) @ 2475: uvm_test_top.apb_env.apb_scoreboard_1 [apb_scoreboard] ---------------------------------------
# DRIVER : W_ADDR = 002, R_ADDR = 0fe, READ_WRITE = 0
# mem stored = 0x4f at 0x2
# UVM_INFO apb_scoreboard.sv(39) @ 2505: uvm_test_top.apb_env.apb_scoreboard_1 [SCOREBOARD] WRITE: Addr=0x2 Data=0x4f, transfer = 1
# DRIVER : W_ADDR = 08c, R_ADDR = 002, READ_WRITE = 1
# UVM_INFO apb_scoreboard.sv(43) @ 2535: uvm_test_top.apb_env.apb_scoreboard_1 [SCOREBOARD] READ: Addr=0x2 Data=0x4f, transfer = 1
# UVM_INFO apb_scoreboard.sv(45) @ 2535: uvm_test_top.apb_env.apb_scoreboard_1 [apb_scoreboard] ---------------------------------------
# UVM_INFO apb_scoreboard.sv(46) @ 2535: uvm_test_top.apb_env.apb_scoreboard_1 [apb_scoreboard] ----           TEST PASS           ----
# UVM_INFO apb_scoreboard.sv(47) @ 2535: uvm_test_top.apb_env.apb_scoreboard_1 [apb_scoreboard] ---------------------------------------
# DRIVER : W_ADDR = 006, R_ADDR = 0bd, READ_WRITE = 0
# mem stored = 0x63 at 0x6
# UVM_INFO apb_scoreboard.sv(39) @ 2565: uvm_test_top.apb_env.apb_scoreboard_1 [SCOREBOARD] WRITE: Addr=0x6 Data=0x63, transfer = 1
# DRIVER : W_ADDR = 1fc, R_ADDR = 006, READ_WRITE = 1
# UVM_INFO apb_scoreboard.sv(43) @ 2595: uvm_test_top.apb_env.apb_scoreboard_1 [SCOREBOARD] READ: Addr=0x6 Data=0x63, transfer = 1
# UVM_INFO apb_scoreboard.sv(45) @ 2595: uvm_test_top.apb_env.apb_scoreboard_1 [apb_scoreboard] ---------------------------------------
# UVM_INFO apb_scoreboard.sv(46) @ 2595: uvm_test_top.apb_env.apb_scoreboard_1 [apb_scoreboard] ----           TEST PASS           ----
# UVM_INFO apb_scoreboard.sv(47) @ 2595: uvm_test_top.apb_env.apb_scoreboard_1 [apb_scoreboard] ---------------------------------------
# DRIVER : W_ADDR = 003, R_ADDR = 09a, READ_WRITE = 0
# mem stored = 0x3 at 0x3
# UVM_INFO apb_scoreboard.sv(39) @ 2625: uvm_test_top.apb_env.apb_scoreboard_1 [SCOREBOARD] WRITE: Addr=0x3 Data=0x3, transfer = 1
# DRIVER : W_ADDR = 0d9, R_ADDR = 003, READ_WRITE = 1
# UVM_INFO apb_scoreboard.sv(43) @ 2655: uvm_test_top.apb_env.apb_scoreboard_1 [SCOREBOARD] READ: Addr=0x3 Data=0x3, transfer = 1
# UVM_INFO apb_scoreboard.sv(45) @ 2655: uvm_test_top.apb_env.apb_scoreboard_1 [apb_scoreboard] ---------------------------------------
# UVM_INFO apb_scoreboard.sv(46) @ 2655: uvm_test_top.apb_env.apb_scoreboard_1 [apb_scoreboard] ----           TEST PASS           ----
# UVM_INFO apb_scoreboard.sv(47) @ 2655: uvm_test_top.apb_env.apb_scoreboard_1 [apb_scoreboard] ---------------------------------------
# DRIVER : W_ADDR = 003, R_ADDR = 1a4, READ_WRITE = 0
# mem stored = 0x8b at 0x3
# UVM_INFO apb_scoreboard.sv(39) @ 2685: uvm_test_top.apb_env.apb_scoreboard_1 [SCOREBOARD] WRITE: Addr=0x3 Data=0x8b, transfer = 1
# DRIVER : W_ADDR = 02f, R_ADDR = 003, READ_WRITE = 1
# UVM_INFO apb_scoreboard.sv(43) @ 2715: uvm_test_top.apb_env.apb_scoreboard_1 [SCOREBOARD] READ: Addr=0x3 Data=0x8b, transfer = 1
# UVM_INFO apb_scoreboard.sv(45) @ 2715: uvm_test_top.apb_env.apb_scoreboard_1 [apb_scoreboard] ---------------------------------------
# UVM_INFO apb_scoreboard.sv(46) @ 2715: uvm_test_top.apb_env.apb_scoreboard_1 [apb_scoreboard] ----           TEST PASS           ----
# UVM_INFO apb_scoreboard.sv(47) @ 2715: uvm_test_top.apb_env.apb_scoreboard_1 [apb_scoreboard] ---------------------------------------
# DRIVER : W_ADDR = 00a, R_ADDR = 185, READ_WRITE = 0
# mem stored = 0x8f at 0xa
# UVM_INFO apb_scoreboard.sv(39) @ 2745: uvm_test_top.apb_env.apb_scoreboard_1 [SCOREBOARD] WRITE: Addr=0xa Data=0x8f, transfer = 1
# DRIVER : W_ADDR = 048, R_ADDR = 00a, READ_WRITE = 1
# UVM_INFO apb_scoreboard.sv(43) @ 2775: uvm_test_top.apb_env.apb_scoreboard_1 [SCOREBOARD] READ: Addr=0xa Data=0x8f, transfer = 1
# UVM_INFO apb_scoreboard.sv(45) @ 2775: uvm_test_top.apb_env.apb_scoreboard_1 [apb_scoreboard] ---------------------------------------
# UVM_INFO apb_scoreboard.sv(46) @ 2775: uvm_test_top.apb_env.apb_scoreboard_1 [apb_scoreboard] ----           TEST PASS           ----
# UVM_INFO apb_scoreboard.sv(47) @ 2775: uvm_test_top.apb_env.apb_scoreboard_1 [apb_scoreboard] ---------------------------------------
# DRIVER : W_ADDR = 009, R_ADDR = 1c9, READ_WRITE = 0
# mem stored = 0x40 at 0x9
# UVM_INFO apb_scoreboard.sv(39) @ 2805: uvm_test_top.apb_env.apb_scoreboard_1 [SCOREBOARD] WRITE: Addr=0x9 Data=0x40, transfer = 1
# DRIVER : W_ADDR = 11b, R_ADDR = 009, READ_WRITE = 1
# UVM_INFO apb_scoreboard.sv(43) @ 2835: uvm_test_top.apb_env.apb_scoreboard_1 [SCOREBOARD] READ: Addr=0x9 Data=0x40, transfer = 1
# UVM_INFO apb_scoreboard.sv(45) @ 2835: uvm_test_top.apb_env.apb_scoreboard_1 [apb_scoreboard] ---------------------------------------
# UVM_INFO apb_scoreboard.sv(46) @ 2835: uvm_test_top.apb_env.apb_scoreboard_1 [apb_scoreboard] ----           TEST PASS           ----
# UVM_INFO apb_scoreboard.sv(47) @ 2835: uvm_test_top.apb_env.apb_scoreboard_1 [apb_scoreboard] ---------------------------------------
# DRIVER : W_ADDR = 009, R_ADDR = 1f0, READ_WRITE = 0
# mem stored = 0x34 at 0x9
# UVM_INFO apb_scoreboard.sv(39) @ 2865: uvm_test_top.apb_env.apb_scoreboard_1 [SCOREBOARD] WRITE: Addr=0x9 Data=0x34, transfer = 1
# DRIVER : W_ADDR = 1dd, R_ADDR = 009, READ_WRITE = 1
# UVM_INFO apb_scoreboard.sv(43) @ 2895: uvm_test_top.apb_env.apb_scoreboard_1 [SCOREBOARD] READ: Addr=0x9 Data=0x34, transfer = 1
# UVM_INFO apb_scoreboard.sv(45) @ 2895: uvm_test_top.apb_env.apb_scoreboard_1 [apb_scoreboard] ---------------------------------------
# UVM_INFO apb_scoreboard.sv(46) @ 2895: uvm_test_top.apb_env.apb_scoreboard_1 [apb_scoreboard] ----           TEST PASS           ----
# UVM_INFO apb_scoreboard.sv(47) @ 2895: uvm_test_top.apb_env.apb_scoreboard_1 [apb_scoreboard] ---------------------------------------
# DRIVER : W_ADDR = 000, R_ADDR = 1b9, READ_WRITE = 0
# mem stored = 0x9e at 0x0
# UVM_INFO apb_scoreboard.sv(39) @ 2925: uvm_test_top.apb_env.apb_scoreboard_1 [SCOREBOARD] WRITE: Addr=0x0 Data=0x9e, transfer = 1
# DRIVER : W_ADDR = 0e9, R_ADDR = 000, READ_WRITE = 1
# UVM_INFO apb_scoreboard.sv(43) @ 2955: uvm_test_top.apb_env.apb_scoreboard_1 [SCOREBOARD] READ: Addr=0x0 Data=0x9e, transfer = 1
# UVM_INFO apb_scoreboard.sv(45) @ 2955: uvm_test_top.apb_env.apb_scoreboard_1 [apb_scoreboard] ---------------------------------------
# UVM_INFO apb_scoreboard.sv(46) @ 2955: uvm_test_top.apb_env.apb_scoreboard_1 [apb_scoreboard] ----           TEST PASS           ----
# UVM_INFO apb_scoreboard.sv(47) @ 2955: uvm_test_top.apb_env.apb_scoreboard_1 [apb_scoreboard] ---------------------------------------
# DRIVER : W_ADDR = 001, R_ADDR = 0b4, READ_WRITE = 0
# mem stored = 0xa0 at 0x1
# UVM_INFO apb_scoreboard.sv(39) @ 2985: uvm_test_top.apb_env.apb_scoreboard_1 [SCOREBOARD] WRITE: Addr=0x1 Data=0xa0, transfer = 1
# DRIVER : W_ADDR = 10f, R_ADDR = 001, READ_WRITE = 1
# UVM_INFO apb_scoreboard.sv(43) @ 3015: uvm_test_top.apb_env.apb_scoreboard_1 [SCOREBOARD] READ: Addr=0x1 Data=0xa0, transfer = 1
# UVM_INFO apb_scoreboard.sv(45) @ 3015: uvm_test_top.apb_env.apb_scoreboard_1 [apb_scoreboard] ---------------------------------------
# UVM_INFO apb_scoreboard.sv(46) @ 3015: uvm_test_top.apb_env.apb_scoreboard_1 [apb_scoreboard] ----           TEST PASS           ----
# UVM_INFO apb_scoreboard.sv(47) @ 3015: uvm_test_top.apb_env.apb_scoreboard_1 [apb_scoreboard] ---------------------------------------
# DRIVER : W_ADDR = 009, R_ADDR = 167, READ_WRITE = 0
# mem stored = 0x1a at 0x9
# UVM_INFO apb_scoreboard.sv(39) @ 3045: uvm_test_top.apb_env.apb_scoreboard_1 [SCOREBOARD] WRITE: Addr=0x9 Data=0x1a, transfer = 1
# DRIVER : W_ADDR = 1aa, R_ADDR = 009, READ_WRITE = 1
# UVM_INFO apb_scoreboard.sv(43) @ 3075: uvm_test_top.apb_env.apb_scoreboard_1 [SCOREBOARD] READ: Addr=0x9 Data=0x1a, transfer = 1
# UVM_INFO apb_scoreboard.sv(45) @ 3075: uvm_test_top.apb_env.apb_scoreboard_1 [apb_scoreboard] ---------------------------------------
# UVM_INFO apb_scoreboard.sv(46) @ 3075: uvm_test_top.apb_env.apb_scoreboard_1 [apb_scoreboard] ----           TEST PASS           ----
# UVM_INFO apb_scoreboard.sv(47) @ 3075: uvm_test_top.apb_env.apb_scoreboard_1 [apb_scoreboard] ---------------------------------------
# DRIVER : W_ADDR = 000, R_ADDR = 167, READ_WRITE = 0
# mem stored = 0x45 at 0x0
# UVM_INFO apb_scoreboard.sv(39) @ 3105: uvm_test_top.apb_env.apb_scoreboard_1 [SCOREBOARD] WRITE: Addr=0x0 Data=0x45, transfer = 1
# DRIVER : W_ADDR = 022, R_ADDR = 000, READ_WRITE = 1
# UVM_INFO apb_scoreboard.sv(43) @ 3135: uvm_test_top.apb_env.apb_scoreboard_1 [SCOREBOARD] READ: Addr=0x0 Data=0x45, transfer = 1
# UVM_INFO apb_scoreboard.sv(45) @ 3135: uvm_test_top.apb_env.apb_scoreboard_1 [apb_scoreboard] ---------------------------------------
# UVM_INFO apb_scoreboard.sv(46) @ 3135: uvm_test_top.apb_env.apb_scoreboard_1 [apb_scoreboard] ----           TEST PASS           ----
# UVM_INFO apb_scoreboard.sv(47) @ 3135: uvm_test_top.apb_env.apb_scoreboard_1 [apb_scoreboard] ---------------------------------------
# DRIVER : W_ADDR = 00b, R_ADDR = 092, READ_WRITE = 0
# mem stored = 0xee at 0xb
# UVM_INFO apb_scoreboard.sv(39) @ 3165: uvm_test_top.apb_env.apb_scoreboard_1 [SCOREBOARD] WRITE: Addr=0xb Data=0xee, transfer = 1
# DRIVER : W_ADDR = 181, R_ADDR = 00b, READ_WRITE = 1
# UVM_INFO apb_scoreboard.sv(43) @ 3195: uvm_test_top.apb_env.apb_scoreboard_1 [SCOREBOARD] READ: Addr=0xb Data=0xee, transfer = 1
# UVM_INFO apb_scoreboard.sv(45) @ 3195: uvm_test_top.apb_env.apb_scoreboard_1 [apb_scoreboard] ---------------------------------------
# UVM_INFO apb_scoreboard.sv(46) @ 3195: uvm_test_top.apb_env.apb_scoreboard_1 [apb_scoreboard] ----           TEST PASS           ----
# UVM_INFO apb_scoreboard.sv(47) @ 3195: uvm_test_top.apb_env.apb_scoreboard_1 [apb_scoreboard] ---------------------------------------
# DRIVER : W_ADDR = 004, R_ADDR = 0fd, READ_WRITE = 0
# mem stored = 0xb4 at 0x4
# UVM_INFO apb_scoreboard.sv(39) @ 3225: uvm_test_top.apb_env.apb_scoreboard_1 [SCOREBOARD] WRITE: Addr=0x4 Data=0xb4, transfer = 1
# DRIVER : W_ADDR = 086, R_ADDR = 004, READ_WRITE = 1
# UVM_INFO apb_scoreboard.sv(43) @ 3255: uvm_test_top.apb_env.apb_scoreboard_1 [SCOREBOARD] READ: Addr=0x4 Data=0xb4, transfer = 1
# UVM_INFO apb_scoreboard.sv(45) @ 3255: uvm_test_top.apb_env.apb_scoreboard_1 [apb_scoreboard] ---------------------------------------
# UVM_INFO apb_scoreboard.sv(46) @ 3255: uvm_test_top.apb_env.apb_scoreboard_1 [apb_scoreboard] ----           TEST PASS           ----
# UVM_INFO apb_scoreboard.sv(47) @ 3255: uvm_test_top.apb_env.apb_scoreboard_1 [apb_scoreboard] ---------------------------------------
# DRIVER : W_ADDR = 008, R_ADDR = 15a, READ_WRITE = 0
# mem stored = 0xd at 0x8
# UVM_INFO apb_scoreboard.sv(39) @ 3285: uvm_test_top.apb_env.apb_scoreboard_1 [SCOREBOARD] WRITE: Addr=0x8 Data=0xd, transfer = 1
# DRIVER : W_ADDR = 191, R_ADDR = 008, READ_WRITE = 1
# UVM_INFO apb_scoreboard.sv(43) @ 3315: uvm_test_top.apb_env.apb_scoreboard_1 [SCOREBOARD] READ: Addr=0x8 Data=0xd, transfer = 1
# UVM_INFO apb_scoreboard.sv(45) @ 3315: uvm_test_top.apb_env.apb_scoreboard_1 [apb_scoreboard] ---------------------------------------
# UVM_INFO apb_scoreboard.sv(46) @ 3315: uvm_test_top.apb_env.apb_scoreboard_1 [apb_scoreboard] ----           TEST PASS           ----
# UVM_INFO apb_scoreboard.sv(47) @ 3315: uvm_test_top.apb_env.apb_scoreboard_1 [apb_scoreboard] ---------------------------------------
# DRIVER : W_ADDR = 00a, R_ADDR = 077, READ_WRITE = 0
# mem stored = 0x3c at 0xa
# UVM_INFO apb_scoreboard.sv(39) @ 3345: uvm_test_top.apb_env.apb_scoreboard_1 [SCOREBOARD] WRITE: Addr=0xa Data=0x3c, transfer = 1
# DRIVER : W_ADDR = 007, R_ADDR = 00a, READ_WRITE = 1
# UVM_INFO apb_scoreboard.sv(43) @ 3375: uvm_test_top.apb_env.apb_scoreboard_1 [SCOREBOARD] READ: Addr=0xa Data=0x3c, transfer = 1
# UVM_INFO apb_scoreboard.sv(45) @ 3375: uvm_test_top.apb_env.apb_scoreboard_1 [apb_scoreboard] ---------------------------------------
# UVM_INFO apb_scoreboard.sv(46) @ 3375: uvm_test_top.apb_env.apb_scoreboard_1 [apb_scoreboard] ----           TEST PASS           ----
# UVM_INFO apb_scoreboard.sv(47) @ 3375: uvm_test_top.apb_env.apb_scoreboard_1 [apb_scoreboard] ---------------------------------------
# DRIVER : W_ADDR = 002, R_ADDR = 00e, READ_WRITE = 0
# mem stored = 0x19 at 0x2
# UVM_INFO apb_scoreboard.sv(39) @ 3405: uvm_test_top.apb_env.apb_scoreboard_1 [SCOREBOARD] WRITE: Addr=0x2 Data=0x19, transfer = 1
# DRIVER : W_ADDR = 11c, R_ADDR = 002, READ_WRITE = 1
# UVM_INFO apb_scoreboard.sv(43) @ 3435: uvm_test_top.apb_env.apb_scoreboard_1 [SCOREBOARD] READ: Addr=0x2 Data=0x19, transfer = 1
# UVM_INFO apb_scoreboard.sv(45) @ 3435: uvm_test_top.apb_env.apb_scoreboard_1 [apb_scoreboard] ---------------------------------------
# UVM_INFO apb_scoreboard.sv(46) @ 3435: uvm_test_top.apb_env.apb_scoreboard_1 [apb_scoreboard] ----           TEST PASS           ----
# UVM_INFO apb_scoreboard.sv(47) @ 3435: uvm_test_top.apb_env.apb_scoreboard_1 [apb_scoreboard] ---------------------------------------
# DRIVER : W_ADDR = 001, R_ADDR = 12d, READ_WRITE = 0
# mem stored = 0x43 at 0x1
# UVM_INFO apb_scoreboard.sv(39) @ 3465: uvm_test_top.apb_env.apb_scoreboard_1 [SCOREBOARD] WRITE: Addr=0x1 Data=0x43, transfer = 1
# DRIVER : W_ADDR = 027, R_ADDR = 001, READ_WRITE = 1
# UVM_INFO apb_scoreboard.sv(43) @ 3495: uvm_test_top.apb_env.apb_scoreboard_1 [SCOREBOARD] READ: Addr=0x1 Data=0x43, transfer = 1
# UVM_INFO apb_scoreboard.sv(45) @ 3495: uvm_test_top.apb_env.apb_scoreboard_1 [apb_scoreboard] ---------------------------------------
# UVM_INFO apb_scoreboard.sv(46) @ 3495: uvm_test_top.apb_env.apb_scoreboard_1 [apb_scoreboard] ----           TEST PASS           ----
# UVM_INFO apb_scoreboard.sv(47) @ 3495: uvm_test_top.apb_env.apb_scoreboard_1 [apb_scoreboard] ---------------------------------------
# DRIVER : W_ADDR = 005, R_ADDR = 04d, READ_WRITE = 0
# mem stored = 0xf8 at 0x5
# UVM_INFO apb_scoreboard.sv(39) @ 3525: uvm_test_top.apb_env.apb_scoreboard_1 [SCOREBOARD] WRITE: Addr=0x5 Data=0xf8, transfer = 1
# DRIVER : W_ADDR = 1b1, R_ADDR = 005, READ_WRITE = 1
# UVM_INFO apb_scoreboard.sv(43) @ 3555: uvm_test_top.apb_env.apb_scoreboard_1 [SCOREBOARD] READ: Addr=0x5 Data=0xf8, transfer = 1
# UVM_INFO apb_scoreboard.sv(45) @ 3555: uvm_test_top.apb_env.apb_scoreboard_1 [apb_scoreboard] ---------------------------------------
# UVM_INFO apb_scoreboard.sv(46) @ 3555: uvm_test_top.apb_env.apb_scoreboard_1 [apb_scoreboard] ----           TEST PASS           ----
# UVM_INFO apb_scoreboard.sv(47) @ 3555: uvm_test_top.apb_env.apb_scoreboard_1 [apb_scoreboard] ---------------------------------------
# DRIVER : W_ADDR = 009, R_ADDR = 1e1, READ_WRITE = 0
# mem stored = 0x15 at 0x9
# UVM_INFO apb_scoreboard.sv(39) @ 3585: uvm_test_top.apb_env.apb_scoreboard_1 [SCOREBOARD] WRITE: Addr=0x9 Data=0x15, transfer = 1
# DRIVER : W_ADDR = 074, R_ADDR = 009, READ_WRITE = 1
# UVM_INFO apb_scoreboard.sv(43) @ 3615: uvm_test_top.apb_env.apb_scoreboard_1 [SCOREBOARD] READ: Addr=0x9 Data=0x15, transfer = 1
# UVM_INFO apb_scoreboard.sv(45) @ 3615: uvm_test_top.apb_env.apb_scoreboard_1 [apb_scoreboard] ---------------------------------------
# UVM_INFO apb_scoreboard.sv(46) @ 3615: uvm_test_top.apb_env.apb_scoreboard_1 [apb_scoreboard] ----           TEST PASS           ----
# UVM_INFO apb_scoreboard.sv(47) @ 3615: uvm_test_top.apb_env.apb_scoreboard_1 [apb_scoreboard] ---------------------------------------
# DRIVER : W_ADDR = 001, R_ADDR = 05f, READ_WRITE = 0
# mem stored = 0x58 at 0x1
# UVM_INFO apb_scoreboard.sv(39) @ 3645: uvm_test_top.apb_env.apb_scoreboard_1 [SCOREBOARD] WRITE: Addr=0x1 Data=0x58, transfer = 1
# DRIVER : W_ADDR = 158, R_ADDR = 001, READ_WRITE = 1
# UVM_INFO apb_scoreboard.sv(43) @ 3675: uvm_test_top.apb_env.apb_scoreboard_1 [SCOREBOARD] READ: Addr=0x1 Data=0x58, transfer = 1
# UVM_INFO apb_scoreboard.sv(45) @ 3675: uvm_test_top.apb_env.apb_scoreboard_1 [apb_scoreboard] ---------------------------------------
# UVM_INFO apb_scoreboard.sv(46) @ 3675: uvm_test_top.apb_env.apb_scoreboard_1 [apb_scoreboard] ----           TEST PASS           ----
# UVM_INFO apb_scoreboard.sv(47) @ 3675: uvm_test_top.apb_env.apb_scoreboard_1 [apb_scoreboard] ---------------------------------------
# DRIVER : W_ADDR = 005, R_ADDR = 1ba, READ_WRITE = 0
# mem stored = 0x1d at 0x5
# UVM_INFO apb_scoreboard.sv(39) @ 3705: uvm_test_top.apb_env.apb_scoreboard_1 [SCOREBOARD] WRITE: Addr=0x5 Data=0x1d, transfer = 1
# DRIVER : W_ADDR = 183, R_ADDR = 005, READ_WRITE = 1
# UVM_INFO apb_scoreboard.sv(43) @ 3735: uvm_test_top.apb_env.apb_scoreboard_1 [SCOREBOARD] READ: Addr=0x5 Data=0x1d, transfer = 1
# UVM_INFO apb_scoreboard.sv(45) @ 3735: uvm_test_top.apb_env.apb_scoreboard_1 [apb_scoreboard] ---------------------------------------
# UVM_INFO apb_scoreboard.sv(46) @ 3735: uvm_test_top.apb_env.apb_scoreboard_1 [apb_scoreboard] ----           TEST PASS           ----
# UVM_INFO apb_scoreboard.sv(47) @ 3735: uvm_test_top.apb_env.apb_scoreboard_1 [apb_scoreboard] ---------------------------------------
# DRIVER : W_ADDR = 004, R_ADDR = 047, READ_WRITE = 0
# mem stored = 0xd7 at 0x4
# UVM_INFO apb_scoreboard.sv(39) @ 3765: uvm_test_top.apb_env.apb_scoreboard_1 [SCOREBOARD] WRITE: Addr=0x4 Data=0xd7, transfer = 1
# DRIVER : W_ADDR = 1e3, R_ADDR = 004, READ_WRITE = 1
# UVM_INFO apb_scoreboard.sv(43) @ 3795: uvm_test_top.apb_env.apb_scoreboard_1 [SCOREBOARD] READ: Addr=0x4 Data=0xd7, transfer = 1
# UVM_INFO apb_scoreboard.sv(45) @ 3795: uvm_test_top.apb_env.apb_scoreboard_1 [apb_scoreboard] ---------------------------------------
# UVM_INFO apb_scoreboard.sv(46) @ 3795: uvm_test_top.apb_env.apb_scoreboard_1 [apb_scoreboard] ----           TEST PASS           ----
# UVM_INFO apb_scoreboard.sv(47) @ 3795: uvm_test_top.apb_env.apb_scoreboard_1 [apb_scoreboard] ---------------------------------------
# DRIVER : W_ADDR = 002, R_ADDR = 12c, READ_WRITE = 0
# mem stored = 0x3b at 0x2
# UVM_INFO apb_scoreboard.sv(39) @ 3825: uvm_test_top.apb_env.apb_scoreboard_1 [SCOREBOARD] WRITE: Addr=0x2 Data=0x3b, transfer = 1
# DRIVER : W_ADDR = 0ff, R_ADDR = 002, READ_WRITE = 1
# UVM_INFO apb_scoreboard.sv(43) @ 3855: uvm_test_top.apb_env.apb_scoreboard_1 [SCOREBOARD] READ: Addr=0x2 Data=0x3b, transfer = 1
# UVM_INFO apb_scoreboard.sv(45) @ 3855: uvm_test_top.apb_env.apb_scoreboard_1 [apb_scoreboard] ---------------------------------------
# UVM_INFO apb_scoreboard.sv(46) @ 3855: uvm_test_top.apb_env.apb_scoreboard_1 [apb_scoreboard] ----           TEST PASS           ----
# UVM_INFO apb_scoreboard.sv(47) @ 3855: uvm_test_top.apb_env.apb_scoreboard_1 [apb_scoreboard] ---------------------------------------
# DRIVER : W_ADDR = 009, R_ADDR = 1ca, READ_WRITE = 0
# mem stored = 0xa6 at 0x9
# UVM_INFO apb_scoreboard.sv(39) @ 3885: uvm_test_top.apb_env.apb_scoreboard_1 [SCOREBOARD] WRITE: Addr=0x9 Data=0xa6, transfer = 1
# DRIVER : W_ADDR = 01a, R_ADDR = 009, READ_WRITE = 1
# UVM_INFO apb_scoreboard.sv(43) @ 3915: uvm_test_top.apb_env.apb_scoreboard_1 [SCOREBOARD] READ: Addr=0x9 Data=0xa6, transfer = 1
# UVM_INFO apb_scoreboard.sv(45) @ 3915: uvm_test_top.apb_env.apb_scoreboard_1 [apb_scoreboard] ---------------------------------------
# UVM_INFO apb_scoreboard.sv(46) @ 3915: uvm_test_top.apb_env.apb_scoreboard_1 [apb_scoreboard] ----           TEST PASS           ----
# UVM_INFO apb_scoreboard.sv(47) @ 3915: uvm_test_top.apb_env.apb_scoreboard_1 [apb_scoreboard] ---------------------------------------
# DRIVER : W_ADDR = 00a, R_ADDR = 0f5, READ_WRITE = 0
# mem stored = 0x13 at 0xa
# UVM_INFO apb_scoreboard.sv(39) @ 3945: uvm_test_top.apb_env.apb_scoreboard_1 [SCOREBOARD] WRITE: Addr=0xa Data=0x13, transfer = 1
# DRIVER : W_ADDR = 19c, R_ADDR = 00a, READ_WRITE = 1
# UVM_INFO apb_scoreboard.sv(43) @ 3975: uvm_test_top.apb_env.apb_scoreboard_1 [SCOREBOARD] READ: Addr=0xa Data=0x13, transfer = 1
# UVM_INFO apb_scoreboard.sv(45) @ 3975: uvm_test_top.apb_env.apb_scoreboard_1 [apb_scoreboard] ---------------------------------------
# UVM_INFO apb_scoreboard.sv(46) @ 3975: uvm_test_top.apb_env.apb_scoreboard_1 [apb_scoreboard] ----           TEST PASS           ----
# UVM_INFO apb_scoreboard.sv(47) @ 3975: uvm_test_top.apb_env.apb_scoreboard_1 [apb_scoreboard] ---------------------------------------
# DRIVER : W_ADDR = 007, R_ADDR = 115, READ_WRITE = 0
# mem stored = 0x17 at 0x7
# UVM_INFO apb_scoreboard.sv(39) @ 4005: uvm_test_top.apb_env.apb_scoreboard_1 [SCOREBOARD] WRITE: Addr=0x7 Data=0x17, transfer = 1
# DRIVER : W_ADDR = 13b, R_ADDR = 007, READ_WRITE = 1
# UVM_INFO apb_scoreboard.sv(43) @ 4035: uvm_test_top.apb_env.apb_scoreboard_1 [SCOREBOARD] READ: Addr=0x7 Data=0x17, transfer = 1
# UVM_INFO apb_scoreboard.sv(45) @ 4035: uvm_test_top.apb_env.apb_scoreboard_1 [apb_scoreboard] ---------------------------------------
# UVM_INFO apb_scoreboard.sv(46) @ 4035: uvm_test_top.apb_env.apb_scoreboard_1 [apb_scoreboard] ----           TEST PASS           ----
# UVM_INFO apb_scoreboard.sv(47) @ 4035: uvm_test_top.apb_env.apb_scoreboard_1 [apb_scoreboard] ---------------------------------------
# DRIVER : W_ADDR = 001, R_ADDR = 179, READ_WRITE = 0
# mem stored = 0xfa at 0x1
# UVM_INFO apb_scoreboard.sv(39) @ 4065: uvm_test_top.apb_env.apb_scoreboard_1 [SCOREBOARD] WRITE: Addr=0x1 Data=0xfa, transfer = 1
# DRIVER : W_ADDR = 003, R_ADDR = 001, READ_WRITE = 1
# UVM_INFO apb_scoreboard.sv(43) @ 4095: uvm_test_top.apb_env.apb_scoreboard_1 [SCOREBOARD] READ: Addr=0x1 Data=0xfa, transfer = 1
# UVM_INFO apb_scoreboard.sv(45) @ 4095: uvm_test_top.apb_env.apb_scoreboard_1 [apb_scoreboard] ---------------------------------------
# UVM_INFO apb_scoreboard.sv(46) @ 4095: uvm_test_top.apb_env.apb_scoreboard_1 [apb_scoreboard] ----           TEST PASS           ----
# UVM_INFO apb_scoreboard.sv(47) @ 4095: uvm_test_top.apb_env.apb_scoreboard_1 [apb_scoreboard] ---------------------------------------
# DRIVER : W_ADDR = 002, R_ADDR = 139, READ_WRITE = 0
# mem stored = 0x32 at 0x2
# UVM_INFO apb_scoreboard.sv(39) @ 4125: uvm_test_top.apb_env.apb_scoreboard_1 [SCOREBOARD] WRITE: Addr=0x2 Data=0x32, transfer = 1
# DRIVER : W_ADDR = 11d, R_ADDR = 002, READ_WRITE = 1
# UVM_INFO apb_scoreboard.sv(43) @ 4155: uvm_test_top.apb_env.apb_scoreboard_1 [SCOREBOARD] READ: Addr=0x2 Data=0x32, transfer = 1
# UVM_INFO apb_scoreboard.sv(45) @ 4155: uvm_test_top.apb_env.apb_scoreboard_1 [apb_scoreboard] ---------------------------------------
# UVM_INFO apb_scoreboard.sv(46) @ 4155: uvm_test_top.apb_env.apb_scoreboard_1 [apb_scoreboard] ----           TEST PASS           ----
# UVM_INFO apb_scoreboard.sv(47) @ 4155: uvm_test_top.apb_env.apb_scoreboard_1 [apb_scoreboard] ---------------------------------------
# DRIVER : W_ADDR = 008, R_ADDR = 1e8, READ_WRITE = 0
# mem stored = 0xb5 at 0x8
# UVM_INFO apb_scoreboard.sv(39) @ 4185: uvm_test_top.apb_env.apb_scoreboard_1 [SCOREBOARD] WRITE: Addr=0x8 Data=0xb5, transfer = 1
# DRIVER : W_ADDR = 084, R_ADDR = 008, READ_WRITE = 1
# UVM_INFO apb_scoreboard.sv(43) @ 4215: uvm_test_top.apb_env.apb_scoreboard_1 [SCOREBOARD] READ: Addr=0x8 Data=0xb5, transfer = 1
# UVM_INFO apb_scoreboard.sv(45) @ 4215: uvm_test_top.apb_env.apb_scoreboard_1 [apb_scoreboard] ---------------------------------------
# UVM_INFO apb_scoreboard.sv(46) @ 4215: uvm_test_top.apb_env.apb_scoreboard_1 [apb_scoreboard] ----           TEST PASS           ----
# UVM_INFO apb_scoreboard.sv(47) @ 4215: uvm_test_top.apb_env.apb_scoreboard_1 [apb_scoreboard] ---------------------------------------
# DRIVER : W_ADDR = 003, R_ADDR = 0b5, READ_WRITE = 0
# mem stored = 0xea at 0x3
# UVM_INFO apb_scoreboard.sv(39) @ 4245: uvm_test_top.apb_env.apb_scoreboard_1 [SCOREBOARD] WRITE: Addr=0x3 Data=0xea, transfer = 1
# DRIVER : W_ADDR = 100, R_ADDR = 003, READ_WRITE = 1
# UVM_INFO apb_scoreboard.sv(43) @ 4275: uvm_test_top.apb_env.apb_scoreboard_1 [SCOREBOARD] READ: Addr=0x3 Data=0xea, transfer = 1
# UVM_INFO apb_scoreboard.sv(45) @ 4275: uvm_test_top.apb_env.apb_scoreboard_1 [apb_scoreboard] ---------------------------------------
# UVM_INFO apb_scoreboard.sv(46) @ 4275: uvm_test_top.apb_env.apb_scoreboard_1 [apb_scoreboard] ----           TEST PASS           ----
# UVM_INFO apb_scoreboard.sv(47) @ 4275: uvm_test_top.apb_env.apb_scoreboard_1 [apb_scoreboard] ---------------------------------------
# DRIVER : W_ADDR = 004, R_ADDR = 077, READ_WRITE = 0
# mem stored = 0x25 at 0x4
# UVM_INFO apb_scoreboard.sv(39) @ 4305: uvm_test_top.apb_env.apb_scoreboard_1 [SCOREBOARD] WRITE: Addr=0x4 Data=0x25, transfer = 1
# DRIVER : W_ADDR = 004, R_ADDR = 004, READ_WRITE = 1
# UVM_INFO apb_scoreboard.sv(43) @ 4335: uvm_test_top.apb_env.apb_scoreboard_1 [SCOREBOARD] READ: Addr=0x4 Data=0x25, transfer = 1
# UVM_INFO apb_scoreboard.sv(45) @ 4335: uvm_test_top.apb_env.apb_scoreboard_1 [apb_scoreboard] ---------------------------------------
# UVM_INFO apb_scoreboard.sv(46) @ 4335: uvm_test_top.apb_env.apb_scoreboard_1 [apb_scoreboard] ----           TEST PASS           ----
# UVM_INFO apb_scoreboard.sv(47) @ 4335: uvm_test_top.apb_env.apb_scoreboard_1 [apb_scoreboard] ---------------------------------------
# DRIVER : W_ADDR = 002, R_ADDR = 1cd, READ_WRITE = 0
# mem stored = 0xab at 0x2
# UVM_INFO apb_scoreboard.sv(39) @ 4365: uvm_test_top.apb_env.apb_scoreboard_1 [SCOREBOARD] WRITE: Addr=0x2 Data=0xab, transfer = 1
# DRIVER : W_ADDR = 0a1, R_ADDR = 002, READ_WRITE = 1
# UVM_INFO apb_scoreboard.sv(43) @ 4395: uvm_test_top.apb_env.apb_scoreboard_1 [SCOREBOARD] READ: Addr=0x2 Data=0xab, transfer = 1
# UVM_INFO apb_scoreboard.sv(45) @ 4395: uvm_test_top.apb_env.apb_scoreboard_1 [apb_scoreboard] ---------------------------------------
# UVM_INFO apb_scoreboard.sv(46) @ 4395: uvm_test_top.apb_env.apb_scoreboard_1 [apb_scoreboard] ----           TEST PASS           ----
# UVM_INFO apb_scoreboard.sv(47) @ 4395: uvm_test_top.apb_env.apb_scoreboard_1 [apb_scoreboard] ---------------------------------------
# DRIVER : W_ADDR = 009, R_ADDR = 130, READ_WRITE = 0
# mem stored = 0x0 at 0x9
# UVM_INFO apb_scoreboard.sv(39) @ 4425: uvm_test_top.apb_env.apb_scoreboard_1 [SCOREBOARD] WRITE: Addr=0x9 Data=0x0, transfer = 1
# DRIVER : W_ADDR = 149, R_ADDR = 009, READ_WRITE = 1
# UVM_INFO apb_scoreboard.sv(43) @ 4455: uvm_test_top.apb_env.apb_scoreboard_1 [SCOREBOARD] READ: Addr=0x9 Data=0x0, transfer = 1
# UVM_INFO apb_scoreboard.sv(45) @ 4455: uvm_test_top.apb_env.apb_scoreboard_1 [apb_scoreboard] ---------------------------------------
# UVM_INFO apb_scoreboard.sv(46) @ 4455: uvm_test_top.apb_env.apb_scoreboard_1 [apb_scoreboard] ----           TEST PASS           ----
# UVM_INFO apb_scoreboard.sv(47) @ 4455: uvm_test_top.apb_env.apb_scoreboard_1 [apb_scoreboard] ---------------------------------------
# DRIVER : W_ADDR = 005, R_ADDR = 0b4, READ_WRITE = 0
# mem stored = 0xbc at 0x5
# UVM_INFO apb_scoreboard.sv(39) @ 4485: uvm_test_top.apb_env.apb_scoreboard_1 [SCOREBOARD] WRITE: Addr=0x5 Data=0xbc, transfer = 1
# DRIVER : W_ADDR = 05c, R_ADDR = 005, READ_WRITE = 1
# UVM_INFO apb_scoreboard.sv(43) @ 4515: uvm_test_top.apb_env.apb_scoreboard_1 [SCOREBOARD] READ: Addr=0x5 Data=0xbc, transfer = 1
# UVM_INFO apb_scoreboard.sv(45) @ 4515: uvm_test_top.apb_env.apb_scoreboard_1 [apb_scoreboard] ---------------------------------------
# UVM_INFO apb_scoreboard.sv(46) @ 4515: uvm_test_top.apb_env.apb_scoreboard_1 [apb_scoreboard] ----           TEST PASS           ----
# UVM_INFO apb_scoreboard.sv(47) @ 4515: uvm_test_top.apb_env.apb_scoreboard_1 [apb_scoreboard] ---------------------------------------
# DRIVER : W_ADDR = 00b, R_ADDR = 09a, READ_WRITE = 0
# mem stored = 0x86 at 0xb
# UVM_INFO apb_scoreboard.sv(39) @ 4545: uvm_test_top.apb_env.apb_scoreboard_1 [SCOREBOARD] WRITE: Addr=0xb Data=0x86, transfer = 1
# DRIVER : W_ADDR = 039, R_ADDR = 00b, READ_WRITE = 1
# UVM_INFO apb_scoreboard.sv(43) @ 4575: uvm_test_top.apb_env.apb_scoreboard_1 [SCOREBOARD] READ: Addr=0xb Data=0x86, transfer = 1
# UVM_INFO apb_scoreboard.sv(45) @ 4575: uvm_test_top.apb_env.apb_scoreboard_1 [apb_scoreboard] ---------------------------------------
# UVM_INFO apb_scoreboard.sv(46) @ 4575: uvm_test_top.apb_env.apb_scoreboard_1 [apb_scoreboard] ----           TEST PASS           ----
# UVM_INFO apb_scoreboard.sv(47) @ 4575: uvm_test_top.apb_env.apb_scoreboard_1 [apb_scoreboard] ---------------------------------------
# DRIVER : W_ADDR = 009, R_ADDR = 0ad, READ_WRITE = 0
# mem stored = 0x99 at 0x9
# UVM_INFO apb_scoreboard.sv(39) @ 4605: uvm_test_top.apb_env.apb_scoreboard_1 [SCOREBOARD] WRITE: Addr=0x9 Data=0x99, transfer = 1
# DRIVER : W_ADDR = 05b, R_ADDR = 009, READ_WRITE = 1
# UVM_INFO apb_scoreboard.sv(43) @ 4635: uvm_test_top.apb_env.apb_scoreboard_1 [SCOREBOARD] READ: Addr=0x9 Data=0x99, transfer = 1
# UVM_INFO apb_scoreboard.sv(45) @ 4635: uvm_test_top.apb_env.apb_scoreboard_1 [apb_scoreboard] ---------------------------------------
# UVM_INFO apb_scoreboard.sv(46) @ 4635: uvm_test_top.apb_env.apb_scoreboard_1 [apb_scoreboard] ----           TEST PASS           ----
# UVM_INFO apb_scoreboard.sv(47) @ 4635: uvm_test_top.apb_env.apb_scoreboard_1 [apb_scoreboard] ---------------------------------------
# DRIVER : W_ADDR = 001, R_ADDR = 18b, READ_WRITE = 0
# mem stored = 0x92 at 0x1
# UVM_INFO apb_scoreboard.sv(39) @ 4665: uvm_test_top.apb_env.apb_scoreboard_1 [SCOREBOARD] WRITE: Addr=0x1 Data=0x92, transfer = 1
# DRIVER : W_ADDR = 0f1, R_ADDR = 001, READ_WRITE = 1
# UVM_INFO apb_scoreboard.sv(43) @ 4695: uvm_test_top.apb_env.apb_scoreboard_1 [SCOREBOARD] READ: Addr=0x1 Data=0x92, transfer = 1
# UVM_INFO apb_scoreboard.sv(45) @ 4695: uvm_test_top.apb_env.apb_scoreboard_1 [apb_scoreboard] ---------------------------------------
# UVM_INFO apb_scoreboard.sv(46) @ 4695: uvm_test_top.apb_env.apb_scoreboard_1 [apb_scoreboard] ----           TEST PASS           ----
# UVM_INFO apb_scoreboard.sv(47) @ 4695: uvm_test_top.apb_env.apb_scoreboard_1 [apb_scoreboard] ---------------------------------------
# DRIVER : W_ADDR = 008, R_ADDR = 1b9, READ_WRITE = 0
# mem stored = 0xa3 at 0x8
# UVM_INFO apb_scoreboard.sv(39) @ 4725: uvm_test_top.apb_env.apb_scoreboard_1 [SCOREBOARD] WRITE: Addr=0x8 Data=0xa3, transfer = 1
# DRIVER : W_ADDR = 098, R_ADDR = 008, READ_WRITE = 1
# UVM_INFO apb_scoreboard.sv(43) @ 4755: uvm_test_top.apb_env.apb_scoreboard_1 [SCOREBOARD] READ: Addr=0x8 Data=0xa3, transfer = 1
# UVM_INFO apb_scoreboard.sv(45) @ 4755: uvm_test_top.apb_env.apb_scoreboard_1 [apb_scoreboard] ---------------------------------------
# UVM_INFO apb_scoreboard.sv(46) @ 4755: uvm_test_top.apb_env.apb_scoreboard_1 [apb_scoreboard] ----           TEST PASS           ----
# UVM_INFO apb_scoreboard.sv(47) @ 4755: uvm_test_top.apb_env.apb_scoreboard_1 [apb_scoreboard] ---------------------------------------
# DRIVER : W_ADDR = 009, R_ADDR = 10c, READ_WRITE = 0
# mem stored = 0x11 at 0x9
# UVM_INFO apb_scoreboard.sv(39) @ 4785: uvm_test_top.apb_env.apb_scoreboard_1 [SCOREBOARD] WRITE: Addr=0x9 Data=0x11, transfer = 1
# DRIVER : W_ADDR = 0f4, R_ADDR = 009, READ_WRITE = 1
# UVM_INFO apb_scoreboard.sv(43) @ 4815: uvm_test_top.apb_env.apb_scoreboard_1 [SCOREBOARD] READ: Addr=0x9 Data=0x11, transfer = 1
# UVM_INFO apb_scoreboard.sv(45) @ 4815: uvm_test_top.apb_env.apb_scoreboard_1 [apb_scoreboard] ---------------------------------------
# UVM_INFO apb_scoreboard.sv(46) @ 4815: uvm_test_top.apb_env.apb_scoreboard_1 [apb_scoreboard] ----           TEST PASS           ----
# UVM_INFO apb_scoreboard.sv(47) @ 4815: uvm_test_top.apb_env.apb_scoreboard_1 [apb_scoreboard] ---------------------------------------
# DRIVER : W_ADDR = 007, R_ADDR = 00d, READ_WRITE = 0
# mem stored = 0xbf at 0x7
# UVM_INFO apb_scoreboard.sv(39) @ 4845: uvm_test_top.apb_env.apb_scoreboard_1 [SCOREBOARD] WRITE: Addr=0x7 Data=0xbf, transfer = 1
# DRIVER : W_ADDR = 07d, R_ADDR = 007, READ_WRITE = 1
# UVM_INFO apb_scoreboard.sv(43) @ 4875: uvm_test_top.apb_env.apb_scoreboard_1 [SCOREBOARD] READ: Addr=0x7 Data=0xbf, transfer = 1
# UVM_INFO apb_scoreboard.sv(45) @ 4875: uvm_test_top.apb_env.apb_scoreboard_1 [apb_scoreboard] ---------------------------------------
# UVM_INFO apb_scoreboard.sv(46) @ 4875: uvm_test_top.apb_env.apb_scoreboard_1 [apb_scoreboard] ----           TEST PASS           ----
# UVM_INFO apb_scoreboard.sv(47) @ 4875: uvm_test_top.apb_env.apb_scoreboard_1 [apb_scoreboard] ---------------------------------------
# DRIVER : W_ADDR = 002, R_ADDR = 130, READ_WRITE = 0
# mem stored = 0x3e at 0x2
# UVM_INFO apb_scoreboard.sv(39) @ 4905: uvm_test_top.apb_env.apb_scoreboard_1 [SCOREBOARD] WRITE: Addr=0x2 Data=0x3e, transfer = 1
# DRIVER : W_ADDR = 039, R_ADDR = 002, READ_WRITE = 1
# UVM_INFO apb_scoreboard.sv(43) @ 4935: uvm_test_top.apb_env.apb_scoreboard_1 [SCOREBOARD] READ: Addr=0x2 Data=0x3e, transfer = 1
# UVM_INFO apb_scoreboard.sv(45) @ 4935: uvm_test_top.apb_env.apb_scoreboard_1 [apb_scoreboard] ---------------------------------------
# UVM_INFO apb_scoreboard.sv(46) @ 4935: uvm_test_top.apb_env.apb_scoreboard_1 [apb_scoreboard] ----           TEST PASS           ----
# UVM_INFO apb_scoreboard.sv(47) @ 4935: uvm_test_top.apb_env.apb_scoreboard_1 [apb_scoreboard] ---------------------------------------
# DRIVER : W_ADDR = 008, R_ADDR = 1a2, READ_WRITE = 0
# mem stored = 0x87 at 0x8
# UVM_INFO apb_scoreboard.sv(39) @ 4965: uvm_test_top.apb_env.apb_scoreboard_1 [SCOREBOARD] WRITE: Addr=0x8 Data=0x87, transfer = 1
# DRIVER : W_ADDR = 12b, R_ADDR = 008, READ_WRITE = 1
# UVM_INFO apb_scoreboard.sv(43) @ 4995: uvm_test_top.apb_env.apb_scoreboard_1 [SCOREBOARD] READ: Addr=0x8 Data=0x87, transfer = 1
# UVM_INFO apb_scoreboard.sv(45) @ 4995: uvm_test_top.apb_env.apb_scoreboard_1 [apb_scoreboard] ---------------------------------------
# UVM_INFO apb_scoreboard.sv(46) @ 4995: uvm_test_top.apb_env.apb_scoreboard_1 [apb_scoreboard] ----           TEST PASS           ----
# UVM_INFO apb_scoreboard.sv(47) @ 4995: uvm_test_top.apb_env.apb_scoreboard_1 [apb_scoreboard] ---------------------------------------
# DRIVER : W_ADDR = 005, R_ADDR = 0be, READ_WRITE = 0
# mem stored = 0xd0 at 0x5
# UVM_INFO apb_scoreboard.sv(39) @ 5025: uvm_test_top.apb_env.apb_scoreboard_1 [SCOREBOARD] WRITE: Addr=0x5 Data=0xd0, transfer = 1
# DRIVER : W_ADDR = 004, R_ADDR = 005, READ_WRITE = 1
# UVM_INFO apb_scoreboard.sv(43) @ 5055: uvm_test_top.apb_env.apb_scoreboard_1 [SCOREBOARD] READ: Addr=0x5 Data=0xd0, transfer = 1
# UVM_INFO apb_scoreboard.sv(45) @ 5055: uvm_test_top.apb_env.apb_scoreboard_1 [apb_scoreboard] ---------------------------------------
# UVM_INFO apb_scoreboard.sv(46) @ 5055: uvm_test_top.apb_env.apb_scoreboard_1 [apb_scoreboard] ----           TEST PASS           ----
# UVM_INFO apb_scoreboard.sv(47) @ 5055: uvm_test_top.apb_env.apb_scoreboard_1 [apb_scoreboard] ---------------------------------------
# DRIVER : W_ADDR = 004, R_ADDR = 0c1, READ_WRITE = 0
# mem stored = 0x33 at 0x4
# UVM_INFO apb_scoreboard.sv(39) @ 5085: uvm_test_top.apb_env.apb_scoreboard_1 [SCOREBOARD] WRITE: Addr=0x4 Data=0x33, transfer = 1
# DRIVER : W_ADDR = 077, R_ADDR = 004, READ_WRITE = 1
# UVM_INFO apb_scoreboard.sv(43) @ 5115: uvm_test_top.apb_env.apb_scoreboard_1 [SCOREBOARD] READ: Addr=0x4 Data=0x33, transfer = 1
# UVM_INFO apb_scoreboard.sv(45) @ 5115: uvm_test_top.apb_env.apb_scoreboard_1 [apb_scoreboard] ---------------------------------------
# UVM_INFO apb_scoreboard.sv(46) @ 5115: uvm_test_top.apb_env.apb_scoreboard_1 [apb_scoreboard] ----           TEST PASS           ----
# UVM_INFO apb_scoreboard.sv(47) @ 5115: uvm_test_top.apb_env.apb_scoreboard_1 [apb_scoreboard] ---------------------------------------
# DRIVER : W_ADDR = 001, R_ADDR = 0ff, READ_WRITE = 0
# mem stored = 0x25 at 0x1
# UVM_INFO apb_scoreboard.sv(39) @ 5145: uvm_test_top.apb_env.apb_scoreboard_1 [SCOREBOARD] WRITE: Addr=0x1 Data=0x25, transfer = 1
# DRIVER : W_ADDR = 0a0, R_ADDR = 001, READ_WRITE = 1
# UVM_INFO apb_scoreboard.sv(43) @ 5175: uvm_test_top.apb_env.apb_scoreboard_1 [SCOREBOARD] READ: Addr=0x1 Data=0x25, transfer = 1
# UVM_INFO apb_scoreboard.sv(45) @ 5175: uvm_test_top.apb_env.apb_scoreboard_1 [apb_scoreboard] ---------------------------------------
# UVM_INFO apb_scoreboard.sv(46) @ 5175: uvm_test_top.apb_env.apb_scoreboard_1 [apb_scoreboard] ----           TEST PASS           ----
# UVM_INFO apb_scoreboard.sv(47) @ 5175: uvm_test_top.apb_env.apb_scoreboard_1 [apb_scoreboard] ---------------------------------------
# DRIVER : W_ADDR = 00a, R_ADDR = 18f, READ_WRITE = 0
# mem stored = 0x35 at 0xa
# UVM_INFO apb_scoreboard.sv(39) @ 5205: uvm_test_top.apb_env.apb_scoreboard_1 [SCOREBOARD] WRITE: Addr=0xa Data=0x35, transfer = 1
# DRIVER : W_ADDR = 1a0, R_ADDR = 00a, READ_WRITE = 1
# UVM_INFO apb_scoreboard.sv(43) @ 5235: uvm_test_top.apb_env.apb_scoreboard_1 [SCOREBOARD] READ: Addr=0xa Data=0x35, transfer = 1
# UVM_INFO apb_scoreboard.sv(45) @ 5235: uvm_test_top.apb_env.apb_scoreboard_1 [apb_scoreboard] ---------------------------------------
# UVM_INFO apb_scoreboard.sv(46) @ 5235: uvm_test_top.apb_env.apb_scoreboard_1 [apb_scoreboard] ----           TEST PASS           ----
# UVM_INFO apb_scoreboard.sv(47) @ 5235: uvm_test_top.apb_env.apb_scoreboard_1 [apb_scoreboard] ---------------------------------------
# DRIVER : W_ADDR = 00b, R_ADDR = 19a, READ_WRITE = 0
# mem stored = 0x92 at 0xb
# UVM_INFO apb_scoreboard.sv(39) @ 5265: uvm_test_top.apb_env.apb_scoreboard_1 [SCOREBOARD] WRITE: Addr=0xb Data=0x92, transfer = 1
# DRIVER : W_ADDR = 1a7, R_ADDR = 00b, READ_WRITE = 1
# UVM_INFO apb_scoreboard.sv(43) @ 5295: uvm_test_top.apb_env.apb_scoreboard_1 [SCOREBOARD] READ: Addr=0xb Data=0x92, transfer = 1
# UVM_INFO apb_scoreboard.sv(45) @ 5295: uvm_test_top.apb_env.apb_scoreboard_1 [apb_scoreboard] ---------------------------------------
# UVM_INFO apb_scoreboard.sv(46) @ 5295: uvm_test_top.apb_env.apb_scoreboard_1 [apb_scoreboard] ----           TEST PASS           ----
# UVM_INFO apb_scoreboard.sv(47) @ 5295: uvm_test_top.apb_env.apb_scoreboard_1 [apb_scoreboard] ---------------------------------------
# DRIVER : W_ADDR = 006, R_ADDR = 14d, READ_WRITE = 0
# mem stored = 0x64 at 0x6
# UVM_INFO apb_scoreboard.sv(39) @ 5325: uvm_test_top.apb_env.apb_scoreboard_1 [SCOREBOARD] WRITE: Addr=0x6 Data=0x64, transfer = 1
# DRIVER : W_ADDR = 157, R_ADDR = 006, READ_WRITE = 1
# UVM_INFO apb_scoreboard.sv(43) @ 5355: uvm_test_top.apb_env.apb_scoreboard_1 [SCOREBOARD] READ: Addr=0x6 Data=0x64, transfer = 1
# UVM_INFO apb_scoreboard.sv(45) @ 5355: uvm_test_top.apb_env.apb_scoreboard_1 [apb_scoreboard] ---------------------------------------
# UVM_INFO apb_scoreboard.sv(46) @ 5355: uvm_test_top.apb_env.apb_scoreboard_1 [apb_scoreboard] ----           TEST PASS           ----
# UVM_INFO apb_scoreboard.sv(47) @ 5355: uvm_test_top.apb_env.apb_scoreboard_1 [apb_scoreboard] ---------------------------------------
# DRIVER : W_ADDR = 006, R_ADDR = 073, READ_WRITE = 0
# mem stored = 0xe1 at 0x6
# UVM_INFO apb_scoreboard.sv(39) @ 5385: uvm_test_top.apb_env.apb_scoreboard_1 [SCOREBOARD] WRITE: Addr=0x6 Data=0xe1, transfer = 1
# DRIVER : W_ADDR = 084, R_ADDR = 006, READ_WRITE = 1
# UVM_INFO apb_scoreboard.sv(43) @ 5415: uvm_test_top.apb_env.apb_scoreboard_1 [SCOREBOARD] READ: Addr=0x6 Data=0xe1, transfer = 1
# UVM_INFO apb_scoreboard.sv(45) @ 5415: uvm_test_top.apb_env.apb_scoreboard_1 [apb_scoreboard] ---------------------------------------
# UVM_INFO apb_scoreboard.sv(46) @ 5415: uvm_test_top.apb_env.apb_scoreboard_1 [apb_scoreboard] ----           TEST PASS           ----
# UVM_INFO apb_scoreboard.sv(47) @ 5415: uvm_test_top.apb_env.apb_scoreboard_1 [apb_scoreboard] ---------------------------------------
# DRIVER : W_ADDR = 003, R_ADDR = 178, READ_WRITE = 0
# mem stored = 0x5d at 0x3
# UVM_INFO apb_scoreboard.sv(39) @ 5445: uvm_test_top.apb_env.apb_scoreboard_1 [SCOREBOARD] WRITE: Addr=0x3 Data=0x5d, transfer = 1
# DRIVER : W_ADDR = 094, R_ADDR = 003, READ_WRITE = 1
# UVM_INFO apb_scoreboard.sv(43) @ 5475: uvm_test_top.apb_env.apb_scoreboard_1 [SCOREBOARD] READ: Addr=0x3 Data=0x5d, transfer = 1
# UVM_INFO apb_scoreboard.sv(45) @ 5475: uvm_test_top.apb_env.apb_scoreboard_1 [apb_scoreboard] ---------------------------------------
# UVM_INFO apb_scoreboard.sv(46) @ 5475: uvm_test_top.apb_env.apb_scoreboard_1 [apb_scoreboard] ----           TEST PASS           ----
# UVM_INFO apb_scoreboard.sv(47) @ 5475: uvm_test_top.apb_env.apb_scoreboard_1 [apb_scoreboard] ---------------------------------------
# DRIVER : W_ADDR = 00b, R_ADDR = 1e9, READ_WRITE = 0
# mem stored = 0xcb at 0xb
# UVM_INFO apb_scoreboard.sv(39) @ 5505: uvm_test_top.apb_env.apb_scoreboard_1 [SCOREBOARD] WRITE: Addr=0xb Data=0xcb, transfer = 1
# DRIVER : W_ADDR = 04e, R_ADDR = 00b, READ_WRITE = 1
# UVM_INFO apb_scoreboard.sv(43) @ 5535: uvm_test_top.apb_env.apb_scoreboard_1 [SCOREBOARD] READ: Addr=0xb Data=0xcb, transfer = 1
# UVM_INFO apb_scoreboard.sv(45) @ 5535: uvm_test_top.apb_env.apb_scoreboard_1 [apb_scoreboard] ---------------------------------------
# UVM_INFO apb_scoreboard.sv(46) @ 5535: uvm_test_top.apb_env.apb_scoreboard_1 [apb_scoreboard] ----           TEST PASS           ----
# UVM_INFO apb_scoreboard.sv(47) @ 5535: uvm_test_top.apb_env.apb_scoreboard_1 [apb_scoreboard] ---------------------------------------
# DRIVER : W_ADDR = 005, R_ADDR = 06e, READ_WRITE = 0
# mem stored = 0xba at 0x5
# UVM_INFO apb_scoreboard.sv(39) @ 5565: uvm_test_top.apb_env.apb_scoreboard_1 [SCOREBOARD] WRITE: Addr=0x5 Data=0xba, transfer = 1
# DRIVER : W_ADDR = 13f, R_ADDR = 005, READ_WRITE = 1
# UVM_INFO apb_scoreboard.sv(43) @ 5595: uvm_test_top.apb_env.apb_scoreboard_1 [SCOREBOARD] READ: Addr=0x5 Data=0xba, transfer = 1
# UVM_INFO apb_scoreboard.sv(45) @ 5595: uvm_test_top.apb_env.apb_scoreboard_1 [apb_scoreboard] ---------------------------------------
# UVM_INFO apb_scoreboard.sv(46) @ 5595: uvm_test_top.apb_env.apb_scoreboard_1 [apb_scoreboard] ----           TEST PASS           ----
# UVM_INFO apb_scoreboard.sv(47) @ 5595: uvm_test_top.apb_env.apb_scoreboard_1 [apb_scoreboard] ---------------------------------------
# DRIVER : W_ADDR = 006, R_ADDR = 1dd, READ_WRITE = 0
# mem stored = 0x65 at 0x6
# UVM_INFO apb_scoreboard.sv(39) @ 5625: uvm_test_top.apb_env.apb_scoreboard_1 [SCOREBOARD] WRITE: Addr=0x6 Data=0x65, transfer = 1
# DRIVER : W_ADDR = 091, R_ADDR = 006, READ_WRITE = 1
# UVM_INFO apb_scoreboard.sv(43) @ 5655: uvm_test_top.apb_env.apb_scoreboard_1 [SCOREBOARD] READ: Addr=0x6 Data=0x65, transfer = 1
# UVM_INFO apb_scoreboard.sv(45) @ 5655: uvm_test_top.apb_env.apb_scoreboard_1 [apb_scoreboard] ---------------------------------------
# UVM_INFO apb_scoreboard.sv(46) @ 5655: uvm_test_top.apb_env.apb_scoreboard_1 [apb_scoreboard] ----           TEST PASS           ----
# UVM_INFO apb_scoreboard.sv(47) @ 5655: uvm_test_top.apb_env.apb_scoreboard_1 [apb_scoreboard] ---------------------------------------
# DRIVER : W_ADDR = 000, R_ADDR = 179, READ_WRITE = 0
# mem stored = 0x72 at 0x0
# UVM_INFO apb_scoreboard.sv(39) @ 5685: uvm_test_top.apb_env.apb_scoreboard_1 [SCOREBOARD] WRITE: Addr=0x0 Data=0x72, transfer = 1
# DRIVER : W_ADDR = 18c, R_ADDR = 000, READ_WRITE = 1
# UVM_INFO apb_scoreboard.sv(43) @ 5715: uvm_test_top.apb_env.apb_scoreboard_1 [SCOREBOARD] READ: Addr=0x0 Data=0x72, transfer = 1
# UVM_INFO apb_scoreboard.sv(45) @ 5715: uvm_test_top.apb_env.apb_scoreboard_1 [apb_scoreboard] ---------------------------------------
# UVM_INFO apb_scoreboard.sv(46) @ 5715: uvm_test_top.apb_env.apb_scoreboard_1 [apb_scoreboard] ----           TEST PASS           ----
# UVM_INFO apb_scoreboard.sv(47) @ 5715: uvm_test_top.apb_env.apb_scoreboard_1 [apb_scoreboard] ---------------------------------------
# DRIVER : W_ADDR = 006, R_ADDR = 039, READ_WRITE = 0
# mem stored = 0x39 at 0x6
# UVM_INFO apb_scoreboard.sv(39) @ 5745: uvm_test_top.apb_env.apb_scoreboard_1 [SCOREBOARD] WRITE: Addr=0x6 Data=0x39, transfer = 1
# DRIVER : W_ADDR = 189, R_ADDR = 006, READ_WRITE = 1
# UVM_INFO apb_scoreboard.sv(43) @ 5775: uvm_test_top.apb_env.apb_scoreboard_1 [SCOREBOARD] READ: Addr=0x6 Data=0x39, transfer = 1
# UVM_INFO apb_scoreboard.sv(45) @ 5775: uvm_test_top.apb_env.apb_scoreboard_1 [apb_scoreboard] ---------------------------------------
# UVM_INFO apb_scoreboard.sv(46) @ 5775: uvm_test_top.apb_env.apb_scoreboard_1 [apb_scoreboard] ----           TEST PASS           ----
# UVM_INFO apb_scoreboard.sv(47) @ 5775: uvm_test_top.apb_env.apb_scoreboard_1 [apb_scoreboard] ---------------------------------------
# DRIVER : W_ADDR = 002, R_ADDR = 00b, READ_WRITE = 0
# mem stored = 0xfc at 0x2
# UVM_INFO apb_scoreboard.sv(39) @ 5805: uvm_test_top.apb_env.apb_scoreboard_1 [SCOREBOARD] WRITE: Addr=0x2 Data=0xfc, transfer = 1
# DRIVER : W_ADDR = 1df, R_ADDR = 002, READ_WRITE = 1
# UVM_INFO apb_scoreboard.sv(43) @ 5835: uvm_test_top.apb_env.apb_scoreboard_1 [SCOREBOARD] READ: Addr=0x2 Data=0xfc, transfer = 1
# UVM_INFO apb_scoreboard.sv(45) @ 5835: uvm_test_top.apb_env.apb_scoreboard_1 [apb_scoreboard] ---------------------------------------
# UVM_INFO apb_scoreboard.sv(46) @ 5835: uvm_test_top.apb_env.apb_scoreboard_1 [apb_scoreboard] ----           TEST PASS           ----
# UVM_INFO apb_scoreboard.sv(47) @ 5835: uvm_test_top.apb_env.apb_scoreboard_1 [apb_scoreboard] ---------------------------------------
# DRIVER : W_ADDR = 008, R_ADDR = 1b1, READ_WRITE = 0
# mem stored = 0x5 at 0x8
# UVM_INFO apb_scoreboard.sv(39) @ 5865: uvm_test_top.apb_env.apb_scoreboard_1 [SCOREBOARD] WRITE: Addr=0x8 Data=0x5, transfer = 1
# DRIVER : W_ADDR = 1db, R_ADDR = 008, READ_WRITE = 1
# UVM_INFO apb_scoreboard.sv(43) @ 5895: uvm_test_top.apb_env.apb_scoreboard_1 [SCOREBOARD] READ: Addr=0x8 Data=0x5, transfer = 1
# UVM_INFO apb_scoreboard.sv(45) @ 5895: uvm_test_top.apb_env.apb_scoreboard_1 [apb_scoreboard] ---------------------------------------
# UVM_INFO apb_scoreboard.sv(46) @ 5895: uvm_test_top.apb_env.apb_scoreboard_1 [apb_scoreboard] ----           TEST PASS           ----
# UVM_INFO apb_scoreboard.sv(47) @ 5895: uvm_test_top.apb_env.apb_scoreboard_1 [apb_scoreboard] ---------------------------------------
# DRIVER : W_ADDR = 000, R_ADDR = 107, READ_WRITE = 0
# mem stored = 0x45 at 0x0
# UVM_INFO apb_scoreboard.sv(39) @ 5925: uvm_test_top.apb_env.apb_scoreboard_1 [SCOREBOARD] WRITE: Addr=0x0 Data=0x45, transfer = 1
# DRIVER : W_ADDR = 121, R_ADDR = 000, READ_WRITE = 1
# UVM_INFO apb_scoreboard.sv(43) @ 5955: uvm_test_top.apb_env.apb_scoreboard_1 [SCOREBOARD] READ: Addr=0x0 Data=0x45, transfer = 1
# UVM_INFO apb_scoreboard.sv(45) @ 5955: uvm_test_top.apb_env.apb_scoreboard_1 [apb_scoreboard] ---------------------------------------
# UVM_INFO apb_scoreboard.sv(46) @ 5955: uvm_test_top.apb_env.apb_scoreboard_1 [apb_scoreboard] ----           TEST PASS           ----
# UVM_INFO apb_scoreboard.sv(47) @ 5955: uvm_test_top.apb_env.apb_scoreboard_1 [apb_scoreboard] ---------------------------------------
# DRIVER : W_ADDR = 004, R_ADDR = 073, READ_WRITE = 0
# mem stored = 0x6 at 0x4
# UVM_INFO apb_scoreboard.sv(39) @ 5985: uvm_test_top.apb_env.apb_scoreboard_1 [SCOREBOARD] WRITE: Addr=0x4 Data=0x6, transfer = 1
# DRIVER : W_ADDR = 169, R_ADDR = 004, READ_WRITE = 1
# UVM_INFO apb_scoreboard.sv(43) @ 6015: uvm_test_top.apb_env.apb_scoreboard_1 [SCOREBOARD] READ: Addr=0x4 Data=0x6, transfer = 1
# UVM_INFO apb_scoreboard.sv(45) @ 6015: uvm_test_top.apb_env.apb_scoreboard_1 [apb_scoreboard] ---------------------------------------
# UVM_INFO apb_scoreboard.sv(46) @ 6015: uvm_test_top.apb_env.apb_scoreboard_1 [apb_scoreboard] ----           TEST PASS           ----
# UVM_INFO apb_scoreboard.sv(47) @ 6015: uvm_test_top.apb_env.apb_scoreboard_1 [apb_scoreboard] ---------------------------------------
# DRIVER : W_ADDR = 007, R_ADDR = 0b1, READ_WRITE = 0
# mem stored = 0x7f at 0x7
# UVM_INFO apb_scoreboard.sv(39) @ 6045: uvm_test_top.apb_env.apb_scoreboard_1 [SCOREBOARD] WRITE: Addr=0x7 Data=0x7f, transfer = 1
# DRIVER : W_ADDR = 1f2, R_ADDR = 007, READ_WRITE = 1
# UVM_INFO apb_scoreboard.sv(43) @ 6075: uvm_test_top.apb_env.apb_scoreboard_1 [SCOREBOARD] READ: Addr=0x7 Data=0x7f, transfer = 1
# UVM_INFO apb_scoreboard.sv(45) @ 6075: uvm_test_top.apb_env.apb_scoreboard_1 [apb_scoreboard] ---------------------------------------
# UVM_INFO apb_scoreboard.sv(46) @ 6075: uvm_test_top.apb_env.apb_scoreboard_1 [apb_scoreboard] ----           TEST PASS           ----
# UVM_INFO apb_scoreboard.sv(47) @ 6075: uvm_test_top.apb_env.apb_scoreboard_1 [apb_scoreboard] ---------------------------------------
# DRIVER : W_ADDR = 000, R_ADDR = 0ee, READ_WRITE = 0
# mem stored = 0x56 at 0x0
# UVM_INFO apb_scoreboard.sv(39) @ 6105: uvm_test_top.apb_env.apb_scoreboard_1 [SCOREBOARD] WRITE: Addr=0x0 Data=0x56, transfer = 1
# DRIVER : W_ADDR = 15b, R_ADDR = 000, READ_WRITE = 1
# UVM_INFO apb_scoreboard.sv(43) @ 6135: uvm_test_top.apb_env.apb_scoreboard_1 [SCOREBOARD] READ: Addr=0x0 Data=0x56, transfer = 1
# UVM_INFO apb_scoreboard.sv(45) @ 6135: uvm_test_top.apb_env.apb_scoreboard_1 [apb_scoreboard] ---------------------------------------
# UVM_INFO apb_scoreboard.sv(46) @ 6135: uvm_test_top.apb_env.apb_scoreboard_1 [apb_scoreboard] ----           TEST PASS           ----
# UVM_INFO apb_scoreboard.sv(47) @ 6135: uvm_test_top.apb_env.apb_scoreboard_1 [apb_scoreboard] ---------------------------------------
# DRIVER : W_ADDR = 00a, R_ADDR = 196, READ_WRITE = 0
# mem stored = 0xff at 0xa
# UVM_INFO apb_scoreboard.sv(39) @ 6165: uvm_test_top.apb_env.apb_scoreboard_1 [SCOREBOARD] WRITE: Addr=0xa Data=0xff, transfer = 1
# DRIVER : W_ADDR = 09a, R_ADDR = 00a, READ_WRITE = 1
# UVM_INFO apb_scoreboard.sv(43) @ 6195: uvm_test_top.apb_env.apb_scoreboard_1 [SCOREBOARD] READ: Addr=0xa Data=0xff, transfer = 1
# UVM_INFO apb_scoreboard.sv(45) @ 6195: uvm_test_top.apb_env.apb_scoreboard_1 [apb_scoreboard] ---------------------------------------
# UVM_INFO apb_scoreboard.sv(46) @ 6195: uvm_test_top.apb_env.apb_scoreboard_1 [apb_scoreboard] ----           TEST PASS           ----
# UVM_INFO apb_scoreboard.sv(47) @ 6195: uvm_test_top.apb_env.apb_scoreboard_1 [apb_scoreboard] ---------------------------------------
# DRIVER : W_ADDR = 009, R_ADDR = 04c, READ_WRITE = 0
# mem stored = 0x77 at 0x9
# UVM_INFO apb_scoreboard.sv(39) @ 6225: uvm_test_top.apb_env.apb_scoreboard_1 [SCOREBOARD] WRITE: Addr=0x9 Data=0x77, transfer = 1
# DRIVER : W_ADDR = 0c6, R_ADDR = 009, READ_WRITE = 1
# UVM_INFO apb_scoreboard.sv(43) @ 6255: uvm_test_top.apb_env.apb_scoreboard_1 [SCOREBOARD] READ: Addr=0x9 Data=0x77, transfer = 1
# UVM_INFO apb_scoreboard.sv(45) @ 6255: uvm_test_top.apb_env.apb_scoreboard_1 [apb_scoreboard] ---------------------------------------
# UVM_INFO apb_scoreboard.sv(46) @ 6255: uvm_test_top.apb_env.apb_scoreboard_1 [apb_scoreboard] ----           TEST PASS           ----
# UVM_INFO apb_scoreboard.sv(47) @ 6255: uvm_test_top.apb_env.apb_scoreboard_1 [apb_scoreboard] ---------------------------------------
# DRIVER : W_ADDR = 00b, R_ADDR = 078, READ_WRITE = 0
# mem stored = 0x48 at 0xb
# UVM_INFO apb_scoreboard.sv(39) @ 6285: uvm_test_top.apb_env.apb_scoreboard_1 [SCOREBOARD] WRITE: Addr=0xb Data=0x48, transfer = 1
# DRIVER : W_ADDR = 039, R_ADDR = 00b, READ_WRITE = 1
# UVM_INFO apb_scoreboard.sv(43) @ 6315: uvm_test_top.apb_env.apb_scoreboard_1 [SCOREBOARD] READ: Addr=0xb Data=0x48, transfer = 1
# UVM_INFO apb_scoreboard.sv(45) @ 6315: uvm_test_top.apb_env.apb_scoreboard_1 [apb_scoreboard] ---------------------------------------
# UVM_INFO apb_scoreboard.sv(46) @ 6315: uvm_test_top.apb_env.apb_scoreboard_1 [apb_scoreboard] ----           TEST PASS           ----
# UVM_INFO apb_scoreboard.sv(47) @ 6315: uvm_test_top.apb_env.apb_scoreboard_1 [apb_scoreboard] ---------------------------------------
# DRIVER : W_ADDR = 00b, R_ADDR = 0bd, READ_WRITE = 0
# mem stored = 0x7 at 0xb
# UVM_INFO apb_scoreboard.sv(39) @ 6345: uvm_test_top.apb_env.apb_scoreboard_1 [SCOREBOARD] WRITE: Addr=0xb Data=0x7, transfer = 1
# DRIVER : W_ADDR = 1dc, R_ADDR = 00b, READ_WRITE = 1
# UVM_INFO apb_scoreboard.sv(43) @ 6375: uvm_test_top.apb_env.apb_scoreboard_1 [SCOREBOARD] READ: Addr=0xb Data=0x7, transfer = 1
# UVM_INFO apb_scoreboard.sv(45) @ 6375: uvm_test_top.apb_env.apb_scoreboard_1 [apb_scoreboard] ---------------------------------------
# UVM_INFO apb_scoreboard.sv(46) @ 6375: uvm_test_top.apb_env.apb_scoreboard_1 [apb_scoreboard] ----           TEST PASS           ----
# UVM_INFO apb_scoreboard.sv(47) @ 6375: uvm_test_top.apb_env.apb_scoreboard_1 [apb_scoreboard] ---------------------------------------
# DRIVER : W_ADDR = 009, R_ADDR = 01b, READ_WRITE = 0
# mem stored = 0x21 at 0x9
# UVM_INFO apb_scoreboard.sv(39) @ 6405: uvm_test_top.apb_env.apb_scoreboard_1 [SCOREBOARD] WRITE: Addr=0x9 Data=0x21, transfer = 1
# DRIVER : W_ADDR = 023, R_ADDR = 009, READ_WRITE = 1
# UVM_INFO apb_scoreboard.sv(43) @ 6435: uvm_test_top.apb_env.apb_scoreboard_1 [SCOREBOARD] READ: Addr=0x9 Data=0x21, transfer = 1
# UVM_INFO apb_scoreboard.sv(45) @ 6435: uvm_test_top.apb_env.apb_scoreboard_1 [apb_scoreboard] ---------------------------------------
# UVM_INFO apb_scoreboard.sv(46) @ 6435: uvm_test_top.apb_env.apb_scoreboard_1 [apb_scoreboard] ----           TEST PASS           ----
# UVM_INFO apb_scoreboard.sv(47) @ 6435: uvm_test_top.apb_env.apb_scoreboard_1 [apb_scoreboard] ---------------------------------------
# DRIVER : W_ADDR = 002, R_ADDR = 146, READ_WRITE = 0
# mem stored = 0xef at 0x2
# UVM_INFO apb_scoreboard.sv(39) @ 6465: uvm_test_top.apb_env.apb_scoreboard_1 [SCOREBOARD] WRITE: Addr=0x2 Data=0xef, transfer = 1
# DRIVER : W_ADDR = 11e, R_ADDR = 002, READ_WRITE = 1
# UVM_INFO apb_scoreboard.sv(43) @ 6495: uvm_test_top.apb_env.apb_scoreboard_1 [SCOREBOARD] READ: Addr=0x2 Data=0xef, transfer = 1
# UVM_INFO apb_scoreboard.sv(45) @ 6495: uvm_test_top.apb_env.apb_scoreboard_1 [apb_scoreboard] ---------------------------------------
# UVM_INFO apb_scoreboard.sv(46) @ 6495: uvm_test_top.apb_env.apb_scoreboard_1 [apb_scoreboard] ----           TEST PASS           ----
# UVM_INFO apb_scoreboard.sv(47) @ 6495: uvm_test_top.apb_env.apb_scoreboard_1 [apb_scoreboard] ---------------------------------------
# DRIVER : W_ADDR = 00a, R_ADDR = 0cf, READ_WRITE = 0
# mem stored = 0xcf at 0xa
# UVM_INFO apb_scoreboard.sv(39) @ 6525: uvm_test_top.apb_env.apb_scoreboard_1 [SCOREBOARD] WRITE: Addr=0xa Data=0xcf, transfer = 1
# DRIVER : W_ADDR = 067, R_ADDR = 00a, READ_WRITE = 1
# UVM_INFO apb_scoreboard.sv(43) @ 6555: uvm_test_top.apb_env.apb_scoreboard_1 [SCOREBOARD] READ: Addr=0xa Data=0xcf, transfer = 1
# UVM_INFO apb_scoreboard.sv(45) @ 6555: uvm_test_top.apb_env.apb_scoreboard_1 [apb_scoreboard] ---------------------------------------
# UVM_INFO apb_scoreboard.sv(46) @ 6555: uvm_test_top.apb_env.apb_scoreboard_1 [apb_scoreboard] ----           TEST PASS           ----
# UVM_INFO apb_scoreboard.sv(47) @ 6555: uvm_test_top.apb_env.apb_scoreboard_1 [apb_scoreboard] ---------------------------------------
# DRIVER : W_ADDR = 007, R_ADDR = 089, READ_WRITE = 0
# mem stored = 0xfd at 0x7
# UVM_INFO apb_scoreboard.sv(39) @ 6585: uvm_test_top.apb_env.apb_scoreboard_1 [SCOREBOARD] WRITE: Addr=0x7 Data=0xfd, transfer = 1
# DRIVER : W_ADDR = 182, R_ADDR = 007, READ_WRITE = 1
# UVM_INFO apb_scoreboard.sv(43) @ 6615: uvm_test_top.apb_env.apb_scoreboard_1 [SCOREBOARD] READ: Addr=0x7 Data=0xfd, transfer = 1
# UVM_INFO apb_scoreboard.sv(45) @ 6615: uvm_test_top.apb_env.apb_scoreboard_1 [apb_scoreboard] ---------------------------------------
# UVM_INFO apb_scoreboard.sv(46) @ 6615: uvm_test_top.apb_env.apb_scoreboard_1 [apb_scoreboard] ----           TEST PASS           ----
# UVM_INFO apb_scoreboard.sv(47) @ 6615: uvm_test_top.apb_env.apb_scoreboard_1 [apb_scoreboard] ---------------------------------------
# DRIVER : W_ADDR = 003, R_ADDR = 130, READ_WRITE = 0
# mem stored = 0x4f at 0x3
# UVM_INFO apb_scoreboard.sv(39) @ 6645: uvm_test_top.apb_env.apb_scoreboard_1 [SCOREBOARD] WRITE: Addr=0x3 Data=0x4f, transfer = 1
# DRIVER : W_ADDR = 0b6, R_ADDR = 003, READ_WRITE = 1
# UVM_INFO apb_scoreboard.sv(43) @ 6675: uvm_test_top.apb_env.apb_scoreboard_1 [SCOREBOARD] READ: Addr=0x3 Data=0x4f, transfer = 1
# UVM_INFO apb_scoreboard.sv(45) @ 6675: uvm_test_top.apb_env.apb_scoreboard_1 [apb_scoreboard] ---------------------------------------
# UVM_INFO apb_scoreboard.sv(46) @ 6675: uvm_test_top.apb_env.apb_scoreboard_1 [apb_scoreboard] ----           TEST PASS           ----
# UVM_INFO apb_scoreboard.sv(47) @ 6675: uvm_test_top.apb_env.apb_scoreboard_1 [apb_scoreboard] ---------------------------------------
# DRIVER : W_ADDR = 000, R_ADDR = 1f9, READ_WRITE = 0
# mem stored = 0x6b at 0x0
# UVM_INFO apb_scoreboard.sv(39) @ 6705: uvm_test_top.apb_env.apb_scoreboard_1 [SCOREBOARD] WRITE: Addr=0x0 Data=0x6b, transfer = 1
# DRIVER : W_ADDR = 009, R_ADDR = 000, READ_WRITE = 1
# UVM_INFO apb_scoreboard.sv(43) @ 6735: uvm_test_top.apb_env.apb_scoreboard_1 [SCOREBOARD] READ: Addr=0x0 Data=0x6b, transfer = 1
# UVM_INFO apb_scoreboard.sv(45) @ 6735: uvm_test_top.apb_env.apb_scoreboard_1 [apb_scoreboard] ---------------------------------------
# UVM_INFO apb_scoreboard.sv(46) @ 6735: uvm_test_top.apb_env.apb_scoreboard_1 [apb_scoreboard] ----           TEST PASS           ----
# UVM_INFO apb_scoreboard.sv(47) @ 6735: uvm_test_top.apb_env.apb_scoreboard_1 [apb_scoreboard] ---------------------------------------
# DRIVER : W_ADDR = 00b, R_ADDR = 0d5, READ_WRITE = 0
# mem stored = 0x10 at 0xb
# UVM_INFO apb_scoreboard.sv(39) @ 6765: uvm_test_top.apb_env.apb_scoreboard_1 [SCOREBOARD] WRITE: Addr=0xb Data=0x10, transfer = 1
# DRIVER : W_ADDR = 1bf, R_ADDR = 00b, READ_WRITE = 1
# UVM_INFO apb_scoreboard.sv(43) @ 6795: uvm_test_top.apb_env.apb_scoreboard_1 [SCOREBOARD] READ: Addr=0xb Data=0x10, transfer = 1
# UVM_INFO apb_scoreboard.sv(45) @ 6795: uvm_test_top.apb_env.apb_scoreboard_1 [apb_scoreboard] ---------------------------------------
# UVM_INFO apb_scoreboard.sv(46) @ 6795: uvm_test_top.apb_env.apb_scoreboard_1 [apb_scoreboard] ----           TEST PASS           ----
# UVM_INFO apb_scoreboard.sv(47) @ 6795: uvm_test_top.apb_env.apb_scoreboard_1 [apb_scoreboard] ---------------------------------------
# DRIVER : W_ADDR = 000, R_ADDR = 16e, READ_WRITE = 0
# mem stored = 0x7 at 0x0
# UVM_INFO apb_scoreboard.sv(39) @ 6825: uvm_test_top.apb_env.apb_scoreboard_1 [SCOREBOARD] WRITE: Addr=0x0 Data=0x7, transfer = 1
# DRIVER : W_ADDR = 168, R_ADDR = 000, READ_WRITE = 1
# UVM_INFO apb_scoreboard.sv(43) @ 6855: uvm_test_top.apb_env.apb_scoreboard_1 [SCOREBOARD] READ: Addr=0x0 Data=0x7, transfer = 1
# UVM_INFO apb_scoreboard.sv(45) @ 6855: uvm_test_top.apb_env.apb_scoreboard_1 [apb_scoreboard] ---------------------------------------
# UVM_INFO apb_scoreboard.sv(46) @ 6855: uvm_test_top.apb_env.apb_scoreboard_1 [apb_scoreboard] ----           TEST PASS           ----
# UVM_INFO apb_scoreboard.sv(47) @ 6855: uvm_test_top.apb_env.apb_scoreboard_1 [apb_scoreboard] ---------------------------------------
# DRIVER : W_ADDR = 006, R_ADDR = 085, READ_WRITE = 0
# mem stored = 0xf3 at 0x6
# UVM_INFO apb_scoreboard.sv(39) @ 6885: uvm_test_top.apb_env.apb_scoreboard_1 [SCOREBOARD] WRITE: Addr=0x6 Data=0xf3, transfer = 1
# DRIVER : W_ADDR = 06b, R_ADDR = 006, READ_WRITE = 1
# UVM_INFO apb_scoreboard.sv(43) @ 6915: uvm_test_top.apb_env.apb_scoreboard_1 [SCOREBOARD] READ: Addr=0x6 Data=0xf3, transfer = 1
